Standard ID: 0x050       DLC: 8  Data: 0xCB 0x00 0xFC 0x00 0x80 0x04 0x80 0x04
Standard ID: 0x0F6       DLC: 8  Data: 0x00 0x00 0xC0 0x00 0x61 0x58 0x00 0x00
Standard ID: 0x4C0       DLC: 8  Data: 0x00 0x08 0x03 0x01 0x2D 0x00 0x00 0x00
Standard ID: 0x12A       DLC: 8  Data: 0x00 0x00 0x00 0x00 0x00 0x00 0x00 0x00
Standard ID: 0x189       DLC: 8  Data: 0x6F 0x3E 0x3B 0x00 0xC1 0xF5 0x00 0x00
Standard ID: 0x12A       DLC: 8  Data: 0x00 0x00 0x00 0x00 0x00 0x00 0x00 0x00
Standard ID: 0x4C0       DLC: 8  Data: 0x00 0x00 0x03 0x01 0x2D 0x00 0x00 0x00
Standard ID: 0x0DF       DLC: 8  Data: 0x7D 0x27 0x10 0x00 0xCA 0x00 0xE1 0x57
Standard ID: 0x394       DLC: 8  Data: 0x20 0x0A 0xBC 0x00 0x00 0x00 0x00 0x00
Standard ID: 0x12A       DLC: 8  Data: 0x00 0x00 0x00 0x00 0x00 0x00 0x00 0x00
Standard ID: 0x29A       DLC: 8  Data: 0x00 0x00 0x00 0x00 0x00 0x0D 0x23 0x42
Standard ID: 0x12A       DLC: 8  Data: 0x00 0x00 0x00 0x00 0x00 0x00 0x00 0x00
Standard ID: 0x189       DLC: 8  Data: 0x6F 0x3E 0x3B 0x00 0xC1 0xF5 0x00 0x00
Standard ID: 0x0DF       DLC: 8  Data: 0x7D 0x27 0x10 0x00 0xCA 0x00 0xE1 0x58
Standard ID: 0x189       DLC: 8  Data: 0x6F 0x3E 0x3B 0x00 0xC1 0xF5 0x00 0x00
Standard ID: 0x12A       DLC: 8  Data: 0x00 0x00 0x00 0x00 0x00 0x00 0x00 0x00
Standard ID: 0x127       DLC: 8  Data: 0x00 0x00 0x00 0x00 0x00 0x00 0x00 0x00
Standard ID: 0x12A       DLC: 8  Data: 0x00 0x00 0x00 0x00 0x00 0x00 0x00 0x00
Standard ID: 0x127       DLC: 8  Data: 0x00 0x00 0x00 0x00 0x00 0x00 0x00 0x00
Standard ID: 0x0DF       DLC: 8  Data: 0x7D 0x27 0x10 0x00 0xCA 0x00 0xE1 0x57
Standard ID: 0x29A       DLC: 8  Data: 0x00 0x00 0x00 0x00 0x00 0x0D 0x23 0x42
Standard ID: 0x12A       DLC: 8  Data: 0x00 0x00 0x00 0x00 0x00 0x00 0x00 0x00
Standard ID: 0x400       DLC: 8  Data: 0x13 0x00 0x00 0x00 0x00 0x00 0x00 0x00
Standard ID: 0x12A       DLC: 8  Data: 0x00 0x00 0x00 0x00 0x00 0x00 0x00 0x00
Standard ID: 0x4C0       DLC: 8  Data: 0x00 0x08 0x03 0x01 0x2D 0x00 0x00 0x00
Standard ID: 0x0DF       DLC: 8  Data: 0x7D 0x27 0x10 0x00 0xC9 0xFF 0xE1 0x55
Standard ID: 0x394       DLC: 8  Data: 0x20 0x0A 0xBC 0x00 0x00 0x00 0x00 0x00
Standard ID: 0x09A       DLC: 8  Data: 0xE3 0xF8 0xC0 0x01 0xE8 0xF0 0x38 0x00
Standard ID: 0x40A       DLC: 8  Data: 0xFF 0x12 0x16 0x11 0x00 0x00 0x00 0x00
Standard ID: 0x12A       DLC: 8  Data: 0x00 0x00 0x00 0x00 0x00 0x00 0x00 0x00
Standard ID: 0x29A       DLC: 8  Data: 0x00 0x00 0x00 0x00 0x00 0x0D 0x23 0x42
Standard ID: 0x0DF       DLC: 8  Data: 0x7D 0x27 0x10 0x00 0xC9 0xFF 0xE1 0x55
Standard ID: 0x189       DLC: 8  Data: 0x6F 0x3E 0x3A 0x00 0xC1 0xF6 0x00 0x00
Standard ID: 0x12A       DLC: 8  Data: 0x00 0x00 0x00 0x00 0x00 0x00 0x00 0x00
Standard ID: 0x189       DLC: 8  Data: 0x6F 0x3F 0x3A 0x00 0xC1 0xF6 0x00 0x00
Standard ID: 0x12A       DLC: 8  Data: 0x00 0x00 0x00 0x00 0x00 0x00 0x00 0x00
Standard ID: 0x127       DLC: 8  Data: 0x00 0x00 0x00 0x00 0x00 0x00 0x00 0x00
Standard ID: 0x0DF       DLC: 8  Data: 0x7D 0x27 0x10 0x00 0xC9 0xFF 0xE1 0x54
Standard ID: 0x4C0       DLC: 8  Data: 0x00 0x08 0x03 0x81 0x2D 0x00 0x00 0x00
Standard ID: 0x12A       DLC: 8  Data: 0x00 0x00 0x00 0x00 0x00 0x00 0x00 0x00
Standard ID: 0x29A       DLC: 8  Data: 0x00 0x00 0x00 0x00 0x00 0x0D 0x23 0x42
Standard ID: 0x12A       DLC: 8  Data: 0x00 0x00 0x00 0x00 0x00 0x00 0x00 0x00
Standard ID: 0x4C0       DLC: 8  Data: 0x00 0x08 0x03 0x01 0x2D 0x00 0x00 0x00
Standard ID: 0x0DF       DLC: 8  Data: 0x7D 0x27 0x10 0x00 0xCA 0x00 0xE1 0x55
Standard ID: 0x405       DLC: 8  Data: 0x01 0x67 0x58 0x22 0x52 0x39 0x0F 0xA3
Standard ID: 0x12A       DLC: 8  Data: 0x00 0x00 0x00 0x00 0x00 0x00 0x00 0x00
Standard ID: 0x127       DLC: 8  Data: 0x00 0x00 0x00 0x00 0x00 0x00 0x00 0x00
Standard ID: 0x12A       DLC: 8  Data: 0x00 0x00 0x00 0x00 0x00 0x00 0x00 0x00
Standard ID: 0x127       DLC: 8  Data: 0x00 0x00 0x00 0x00 0x00 0x00 0x00 0x00
Standard ID: 0x09A       DLC: 8  Data: 0xE3 0xF8 0xC0 0x01 0xE8 0xF0 0x38 0x00
Standard ID: 0x40A       DLC: 8  Data: 0xFF 0x14 0x20 0x00 0x40 0x00 0x08 0x03
Standard ID: 0x12A       DLC: 8  Data: 0x00 0x00 0x00 0x00 0x00 0x00 0x00 0x00
Standard ID: 0x127       DLC: 8  Data: 0x00 0x00 0x00 0x00 0x00 0x00 0x00 0x00
Standard ID: 0x12A       DLC: 8  Data: 0x00 0x00 0x00 0x00 0x00 0x00 0x00 0x00
Standard ID: 0x189       DLC: 8  Data: 0x6F 0x3F 0x3C 0x00 0xC1 0xF5 0x00 0x00
Standard ID: 0x0DF       DLC: 8  Data: 0x7D 0x27 0x10 0x00 0xCA 0x01 0xE1 0x58
Standard ID: 0x4C0       DLC: 8  Data: 0x00 0x08 0x03 0x01 0x2D 0x00 0x00 0x00
Standard ID: 0x12A       DLC: 8  Data: 0x00 0x00 0x00 0x00 0x00 0x00 0x00 0x00
Standard ID: 0x127       DLC: 8  Data: 0x00 0x00 0x00 0x00 0x00 0x00 0x00 0x00
Standard ID: 0x12A       DLC: 8  Data: 0x00 0x00 0x00 0x00 0x00 0x00 0x00 0x00
Standard ID: 0x4C0       DLC: 8  Data: 0x00 0x08 0x03 0x81 0x2D 0x00 0x00 0x00
Standard ID: 0x0DF       DLC: 8  Data: 0x7D 0x27 0x10 0x00 0xCA 0x00 0xE1 0x57
Standard ID: 0x189       DLC: 8  Data: 0x6F 0x3F 0x3C 0x00 0xC1 0xF5 0x00 0x00
Standard ID: 0x12A       DLC: 8  Data: 0x00 0x00 0x00 0x00 0x00 0x00 0x00 0x00
Standard ID: 0x189       DLC: 8  Data: 0x6F 0x3F 0x3B 0x00 0xC1 0xF5 0x00 0x00
Standard ID: 0x12A       DLC: 8  Data: 0x00 0x00 0x00 0x00 0x00 0x00 0x00 0x00
Standard ID: 0x127       DLC: 8  Data: 0x00 0x00 0x00 0x00 0x00 0x00 0x00 0x00
Standard ID: 0x0DF       DLC: 8  Data: 0x7D 0x27 0x10 0x00 0xCA 0x00 0xE1 0x57
Standard ID: 0x394       DLC: 8  Data: 0x20 0x0A 0xBC 0x00 0x00 0x00 0x00 0x00
Standard ID: 0x12A       DLC: 8  Data: 0x00 0x00 0x00 0x00 0x00 0x00 0x00 0x00
Standard ID: 0x29A       DLC: 8  Data: 0x00 0x00 0x00 0x00 0x00 0x0D 0x23 0x42
Standard ID: 0x12A       DLC: 8  Data: 0x00 0x00 0x00 0x00 0x00 0x00 0x00 0x00
Standard ID: 0x40A       DLC: 8  Data: 0xFF 0x16 0x10 0x00 0x11 0x00 0x00 0x00
Standard ID: 0x0DF       DLC: 8  Data: 0x7D 0x27 0x10 0x00 0xC9 0xFF 0xE1 0x56
Standard ID: 0x189       DLC: 8  Data: 0x6F 0x3F 0x3B 0x00 0xC1 0xF6 0x00 0x00
Standard ID: 0x12A       DLC: 8  Data: 0x00 0x00 0x00 0x00 0x00 0x00 0x00 0x00
Standard ID: 0x127       DLC: 8  Data: 0x00 0x00 0x00 0x00 0x00 0x00 0x00 0x00
Standard ID: 0x12A       DLC: 8  Data: 0x00 0x00 0x00 0x00 0x00 0x00 0x00 0x00
Standard ID: 0x4C0       DLC: 8  Data: 0x00 0x08 0x03 0x81 0x2D 0x00 0x00 0x00
Standard ID: 0x0DF       DLC: 8  Data: 0x7D 0x27 0x10 0x00 0xC9 0xFF 0xE1 0x56
Standard ID: 0x29A       DLC: 8  Data: 0x00 0x00 0x00 0x00 0x00 0x0D 0x23 0x42
Standard ID: 0x12A       DLC: 8  Data: 0x00 0x00 0x00 0x00 0x00 0x00 0x00 0x00
Standard ID: 0x127       DLC: 8  Data: 0x00 0x00 0x00 0x00 0x00 0x00 0x00 0x00
Standard ID: 0x12A       DLC: 8  Data: 0x00 0x00 0x00 0x00 0x00 0x00 0x00 0x00
Standard ID: 0x189       DLC: 8  Data: 0x6F 0x3F 0x3B 0x00 0xC1 0xF6 0x00 0x00
Standard ID: 0x0DF       DLC: 8  Data: 0x7D 0x27 0x10 0x00 0xCA 0x00 0xE1 0x56
Standard ID: 0x394       DLC: 8  Data: 0x20 0x0A 0xBC 0x00 0x00 0x00 0x00 0x00
Standard ID: 0x12A       DLC: 8  Data: 0x00 0x00 0x00 0x00 0x00 0x00 0x00 0x00
Standard ID: 0x127       DLC: 8  Data: 0x00 0x00 0x00 0x00 0x00 0x00 0x00 0x00
Standard ID: 0x12A       DLC: 8  Data: 0x00 0x00 0x00 0x00 0x00 0x00 0x00 0x00
Standard ID: 0x29A       DLC: 8  Data: 0x00 0x00 0x00 0x00 0x00 0x0D 0x23 0x42
Standard ID: 0x0DF       DLC: 8  Data: 0x7D 0x27 0x10 0x00 0xCA 0x00 0xE1 0x56
Standard ID: 0x4C0       DLC: 8  Data: 0x00 0x08 0x03 0x01 0x2D 0x00 0x00 0x00
Standard ID: 0x12A       DLC: 8  Data: 0x00 0x00 0x00 0x00 0x00 0x00 0x00 0x00
Standard ID: 0x40A       DLC: 8  Data: 0xC0 0x00 0x3E 0x58 0x22 0x52 0x3E 0x3A
Standard ID: 0x12A       DLC: 8  Data: 0x00 0x00 0x00 0x00 0x00 0x00 0x00 0x00
Standard ID: 0x4C0       DLC: 8  Data: 0x00 0x00 0x03 0x01 0x2D 0x00 0x00 0x00
Standard ID: 0x0DF       DLC: 8  Data: 0x7D 0x27 0x10 0x00 0xCA 0x00 0xE1 0x57
Standard ID: 0x400       DLC: 8  Data: 0x16 0x00 0x03 0x00 0x01 0x00 0x00 0x04
Standard ID: 0x12A       DLC: 8  Data: 0x00 0x00 0x00 0x00 0x00 0x00 0x00 0x00
Standard ID: 0x29A       DLC: 8  Data: 0x00 0x00 0x00 0x00 0x00 0x0D 0x23 0x42
Standard ID: 0x12A       DLC: 8  Data: 0x00 0x00 0x00 0x00 0x00 0x00 0x00 0x00
Standard ID: 0x189       DLC: 8  Data: 0x6F 0x3F 0x3B 0x00 0xC1 0xF5 0x00 0x00
Standard ID: 0x0DF       DLC: 8  Data: 0x7D 0x27 0x10 0x00 0xCA 0x01 0xE1 0x58
Standard ID: 0x189       DLC: 8  Data: 0x6F 0x3F 0x3C 0x00 0xC1 0xF5 0x00 0x00
Standard ID: 0x09A       DLC: 8  Data: 0xE3 0xF8 0xC0 0x01 0xE8 0xF0 0x38 0x00
Standard ID: 0x127       DLC: 8  Data: 0x00 0x00 0x00 0x00 0x00 0x00 0x00 0x00
Standard ID: 0x12A       DLC: 8  Data: 0x00 0x00 0x00 0x00 0x00 0x00 0x00 0x00
Standard ID: 0x127       DLC: 8  Data: 0x00 0x00 0x00 0x00 0x00 0x00 0x00 0x00
Standard ID: 0x0DF       DLC: 8  Data: 0x7D 0x27 0x10 0x00 0xCA 0x00 0xE1 0x59
Standard ID: 0x29A       DLC: 8  Data: 0x00 0x00 0x00 0x00 0x00 0x0D 0x23 0x42
Standard ID: 0x12A       DLC: 8  Data: 0x00 0x00 0x00 0x00 0x00 0x00 0x00 0x00
Standard ID: 0x127       DLC: 8  Data: 0x00 0x00 0x00 0x00 0x00 0x00 0x00 0x00
Standard ID: 0x12A       DLC: 8  Data: 0x00 0x00 0x00 0x00 0x00 0x00 0x00 0x00
Standard ID: 0x4C0       DLC: 8  Data: 0x00 0x08 0x03 0x01 0x2D 0x00 0x00 0x00
Standard ID: 0x0DF       DLC: 8  Data: 0x7D 0x27 0x10 0x00 0xCA 0x01 0xE1 0x5A
Standard ID: 0x40A       DLC: 8  Data: 0xC1 0x00 0x38 0x41 0x46 0x41 0x52 0x32
Standard ID: 0x12A       DLC: 8  Data: 0x00 0x00 0x00 0x00 0x00 0x00 0x00 0x00
Standard ID: 0x127       DLC: 8  Data: 0x00 0x00 0x00 0x00 0x00 0x00 0x00 0x00
Standard ID: 0x12A       DLC: 8  Data: 0x00 0x00 0x00 0x00 0x00 0x00 0x00 0x00
Standard ID: 0x29A       DLC: 8  Data: 0x00 0x00 0x00 0x00 0x00 0x0D 0x23 0x42
Standard ID: 0x0DF       DLC: 8  Data: 0x7D 0x27 0x10 0x00 0xCA 0x01 0xE1 0x5B
Standard ID: 0x400       DLC: 8  Data: 0x17 0x00 0x00 0x08 0x00 0x00 0x00 0x00
Standard ID: 0x12A       DLC: 8  Data: 0x00 0x00 0x00 0x00 0x00 0x00 0x00 0x00
Standard ID: 0x189       DLC: 8  Data: 0x6F 0x3F 0x3D 0x00 0xC1 0xF5 0x00 0x00
Standard ID: 0x12A       DLC: 8  Data: 0x00 0x00 0x00 0x00 0x00 0x00 0x00 0x00
Standard ID: 0x127       DLC: 8  Data: 0x00 0x00 0x00 0x00 0x00 0x00 0x00 0x00
Standard ID: 0x0DF       DLC: 8  Data: 0x7D 0x27 0x10 0x00 0xCA 0x01 0xE1 0x5C
Standard ID: 0x4C0       DLC: 8  Data: 0x00 0x08 0x03 0x81 0x2D 0x00 0x00 0x00
Standard ID: 0x12A       DLC: 8  Data: 0x00 0x00 0x00 0x00 0x00 0x00 0x00 0x00
Standard ID: 0x29A       DLC: 8  Data: 0x00 0x00 0x00 0x00 0x00 0x0D 0x23 0x42
Standard ID: 0x12A       DLC: 8  Data: 0x00 0x00 0x00 0x00 0x00 0x00 0x00 0x00
Standard ID: 0x4C0       DLC: 8  Data: 0x00 0x08 0x03 0x01 0x2D 0x00 0x00 0x00
Standard ID: 0x0DF       DLC: 8  Data: 0x7D 0x27 0x10 0x00 0xCA 0x00 0xE1 0x5D
Standard ID: 0x189       DLC: 8  Data: 0x6F 0x3F 0x3E 0x00 0xC1 0xF4 0x00 0x00
Standard ID: 0x12A       DLC: 8  Data: 0x00 0x00 0x00 0x00 0x00 0x00 0x00 0x00
Standard ID: 0x127       DLC: 8  Data: 0x00 0x00 0x00 0x00 0x00 0x00 0x00 0x00
Standard ID: 0x12A       DLC: 8  Data: 0x00 0x00 0x00 0x00 0x00 0x00 0x00 0x00
Standard ID: 0x40A       DLC: 8  Data: 0xC1 0x02 0x30 0x37 0x32 0x31 0x32 0x00
Standard ID: 0x0DF       DLC: 8  Data: 0x7D 0x27 0x10 0x00 0xCA 0x00 0xE1 0x5D
Standard ID: 0x29A       DLC: 8  Data: 0x00 0x00 0x00 0x00 0x00 0x0D 0x23 0x42
Standard ID: 0x12A       DLC: 8  Data: 0x00 0x00 0x00 0x00 0x00 0x00 0x00 0x00
Standard ID: 0x127       DLC: 8  Data: 0x00 0x00 0x00 0x00 0x00 0x00 0x00 0x00
Standard ID: 0x12A       DLC: 8  Data: 0x00 0x00 0x00 0x00 0x00 0x00 0x00 0x00
Standard ID: 0x405       DLC: 8  Data: 0x01 0x67 0x58 0x22 0x52 0x43 0xF0 0x5C
Standard ID: 0x0DF       DLC: 8  Data: 0x7D 0x27 0x10 0x00 0xCA 0x00 0xE1 0x5D
Standard ID: 0x4C0       DLC: 8  Data: 0x00 0x08 0x03 0x01 0x2D 0x00 0x00 0x00
Standard ID: 0x12A       DLC: 8  Data: 0x00 0x00 0x00 0x00 0x00 0x00 0x00 0x00
Standard ID: 0x127       DLC: 8  Data: 0x00 0x00 0x00 0x00 0x00 0x00 0x00 0x00
Standard ID: 0x0DD       DLC: 8  Data: 0x1C 0x00 0x93 0x7F 0x19 0xF4 0xC0 0x00
Standard ID: 0x4C0       DLC: 8  Data: 0x00 0x08 0x03 0x81 0x2D 0x00 0x00 0x00
Standard ID: 0x0DF       DLC: 8  Data: 0x7D 0x27 0x10 0x00 0xCA 0x00 0xE1 0x5D
Standard ID: 0x189       DLC: 8  Data: 0x6F 0x3F 0x3F 0x00 0xC1 0xF4 0x00 0x00
Standard ID: 0x12A       DLC: 8  Data: 0x00 0x00 0x00 0x00 0x00 0x00 0x00 0x00
Standard ID: 0x189       DLC: 8  Data: 0x6F 0x3F 0x3F 0x00 0xC1 0xF4 0x00 0x00
Standard ID: 0x12A       DLC: 8  Data: 0x00 0x00 0x00 0x00 0x00 0x00 0x00 0x00
Standard ID: 0x127       DLC: 8  Data: 0x00 0x00 0x00 0x00 0x00 0x00 0x00 0x00
Standard ID: 0x0DF       DLC: 8  Data: 0x7D 0x27 0x10 0x00 0xCA 0x00 0xE1 0x5E
Standard ID: 0x394       DLC: 8  Data: 0x20 0x0A 0xBC 0x00 0x00 0x00 0x00 0x00
Standard ID: 0x12A       DLC: 8  Data: 0x00 0x00 0x00 0x00 0x00 0x00 0x00 0x00
Standard ID: 0x40A       DLC: 8  Data: 0xC1 0x04 0xFF 0xFF 0x09 0x1A 0x11 0x44
Standard ID: 0x12A       DLC: 8  Data: 0x00 0x00 0x00 0x00 0x00 0x00 0x00 0x00
Standard ID: 0x189       DLC: 8  Data: 0x6F 0x3F 0x3F 0x00 0xC1 0xF4 0x00 0x00
Standard ID: 0x0DF       DLC: 8  Data: 0x7D 0x27 0x10 0x00 0xCA 0x00 0xE1 0x5D
Standard ID: 0x189       DLC: 8  Data: 0x6F 0x3F 0x3F 0x00 0xC1 0xF4 0x00 0x00
Standard ID: 0x12A       DLC: 8  Data: 0x00 0x00 0x00 0x00 0x00 0x00 0x00 0x00
Standard ID: 0x127       DLC: 8  Data: 0x00 0x00 0x00 0x00 0x00 0x00 0x00 0x00
Standard ID: 0x12A       DLC: 8  Data: 0x00 0x00 0x00 0x00 0x00 0x00 0x00 0x00
Standard ID: 0x4C0       DLC: 8  Data: 0x00 0x08 0x03 0x81 0x2D 0x00 0x00 0x00
Standard ID: 0x0DF       DLC: 8  Data: 0x7D 0x27 0x10 0x00 0xCA 0x00 0xE1 0x5E
Standard ID: 0x29A       DLC: 8  Data: 0x00 0x00 0x00 0x00 0x00 0x0D 0x23 0x42
Standard ID: 0x12A       DLC: 8  Data: 0x00 0x00 0x00 0x00 0x00 0x00 0x00 0x00
Standard ID: 0x400       DLC: 8  Data: 0x19 0x00 0x00 0x00 0x04 0x00 0x00 0x00
Standard ID: 0x12A       DLC: 8  Data: 0x00 0x00 0x00 0x00 0x00 0x00 0x00 0x00
Standard ID: 0x189       DLC: 8  Data: 0x6F 0x3F 0x3F 0x00 0xC1 0xF4 0x00 0x00
Standard ID: 0x0DF       DLC: 8  Data: 0x7D 0x27 0x10 0x00 0xCA 0x01 0xE1 0x60
Standard ID: 0x394       DLC: 8  Data: 0x20 0x0A 0xBC 0x00 0x00 0x00 0x00 0x00
Standard ID: 0x09A       DLC: 8  Data: 0xE3 0xF8 0xC0 0x01 0xE8 0xF0 0x38 0x00
Standard ID: 0x127       DLC: 8  Data: 0x00 0x00 0x00 0x00 0x00 0x00 0x00 0x00
Standard ID: 0x12A       DLC: 8  Data: 0x00 0x00 0x00 0x00 0x00 0x00 0x00 0x00
Standard ID: 0x29A       DLC: 8  Data: 0x00 0x00 0x00 0x00 0x00 0x0D 0x23 0x42
Standard ID: 0x0DF       DLC: 8  Data: 0x7D 0x27 0x10 0x00 0xCA 0x01 0xE1 0x61
Standard ID: 0x40A       DLC: 8  Data: 0xFF 0x20 0x00 0x00 0x00 0x00 0x00 0x00
Standard ID: 0x12A       DLC: 8  Data: 0x00 0x00 0x00 0x00 0x00 0x00 0x00 0x00
Standard ID: 0x189       DLC: 8  Data: 0x6F 0x3F 0x40 0x00 0xC1 0xF4 0x00 0x00
Standard ID: 0x12A       DLC: 8  Data: 0x00 0x00 0x00 0x00 0x00 0x00 0x00 0x00
Standard ID: 0x4C0       DLC: 8  Data: 0x00 0x00 0x03 0x01 0x2D 0x00 0x00 0x00
Standard ID: 0x0DF       DLC: 8  Data: 0x7D 0x27 0x10 0x00 0xCA 0x01 0xE1 0x62
Standard ID: 0x394       DLC: 8  Data: 0x20 0x0A 0xBC 0x00 0x00 0x00 0x00 0x00
Standard ID: 0x12A       DLC: 8  Data: 0x00 0x00 0x00 0x00 0x00 0x00 0x00 0x00
Standard ID: 0x29A       DLC: 8  Data: 0x00 0x00 0x00 0x00 0x00 0x0D 0x23 0x42
Standard ID: 0x12A       DLC: 8  Data: 0x00 0x00 0x00 0x00 0x00 0x00 0x00 0x00
Standard ID: 0x189       DLC: 8  Data: 0x6F 0x3F 0x40 0x00 0xC1 0xF4 0x00 0x00
Standard ID: 0x0DF       DLC: 8  Data: 0x7D 0x27 0x10 0x00 0xCA 0x01 0xE1 0x64
Standard ID: 0x405       DLC: 8  Data: 0x05 0x00 0x00 0x00 0x00 0x00 0x09 0x1A
Standard ID: 0x12A       DLC: 8  Data: 0x00 0x00 0x00 0x00 0x00 0x00 0x00 0x00
Standard ID: 0x127       DLC: 8  Data: 0x00 0x00 0x00 0x00 0x00 0x00 0x00 0x00
Standard ID: 0x12A       DLC: 8  Data: 0x00 0x00 0x00 0x00 0x00 0x00 0x00 0x00
Standard ID: 0x127       DLC: 8  Data: 0x00 0x00 0x00 0x00 0x00 0x00 0x00 0x00
Standard ID: 0x0DF       DLC: 8  Data: 0x7D 0x27 0x10 0x00 0xCA 0x01 0xE1 0x64
Standard ID: 0x29A       DLC: 8  Data: 0x00 0x00 0x00 0x00 0x00 0x0D 0x23 0x42
Standard ID: 0x12A       DLC: 8  Data: 0x00 0x00 0x00 0x00 0x00 0x00 0x00 0x00
Standard ID: 0x127       DLC: 8  Data: 0x00 0x00 0x00 0x00 0x00 0x00 0x00 0x00
Standard ID: 0x12A       DLC: 8  Data: 0x00 0x00 0x00 0x00 0x00 0x00 0x00 0x00
Standard ID: 0x4C0       DLC: 8  Data: 0x00 0x08 0x03 0x01 0x2D 0x00 0x00 0x00
Standard ID: 0x0DF       DLC: 8  Data: 0x7D 0x27 0x10 0x00 0xCA 0x01 0xE1 0x65
Standard ID: 0x394       DLC: 8  Data: 0x20 0x0A 0xBC 0x00 0x00 0x00 0x00 0x00
Standard ID: 0x12A       DLC: 8  Data: 0x00 0x00 0x00 0x00 0x00 0x00 0x00 0x00
Standard ID: 0x127       DLC: 8  Data: 0x00 0x00 0x00 0x00 0x00 0x00 0x00 0x00
Standard ID: 0x12A       DLC: 8  Data: 0x00 0x00 0x00 0x00 0x00 0x00 0x00 0x00
Standard ID: 0x29A       DLC: 8  Data: 0x00 0x00 0x00 0x00 0x00 0x0D 0x23 0x42
Standard ID: 0x09A       DLC: 8  Data: 0xE3 0xF8 0xC0 0x01 0xEA 0x68 0x38 0x00
Standard ID: 0x189       DLC: 8  Data: 0x6F 0x3F 0x42 0x00 0xC1 0xF4 0x00 0x00
Standard ID: 0x09A       DLC: 8  Data: 0xE3 0xF8 0xC0 0x01 0xEA 0x68 0x38 0x00
Standard ID: 0x189       DLC: 8  Data: 0x6F 0x3F 0x42 0x00 0xC1 0xF4 0x00 0x00
Standard ID: 0x12A       DLC: 8  Data: 0x00 0x00 0x00 0x00 0x00 0x00 0x00 0x00
Standard ID: 0x127       DLC: 8  Data: 0x00 0x00 0x00 0x00 0x00 0x00 0x00 0x00
Standard ID: 0x0DF       DLC: 8  Data: 0x7D 0x27 0x10 0x00 0xCA 0x00 0xE1 0x66
Standard ID: 0x4C0       DLC: 8  Data: 0x00 0x08 0x03 0x81 0x2D 0x00 0x00 0x00
Standard ID: 0x09A       DLC: 8  Data: 0xE3 0xF8 0xC0 0x01 0xEA 0x68 0x38 0x00
Standard ID: 0x29A       DLC: 8  Data: 0x00 0x00 0x00 0x00 0x00 0x0D 0x23 0x42
Standard ID: 0x0DD       DLC: 8  Data: 0x1C 0x00 0x93 0x7F 0x19 0xF3 0xC0 0x00
Standard ID: 0x4C0       DLC: 8  Data: 0x00 0x08 0x03 0x01 0x2D 0x00 0x00 0x00
Standard ID: 0x0DF       DLC: 8  Data: 0x7D 0x27 0x10 0x00 0xCA 0x00 0xE1 0x66
Standard ID: 0x189       DLC: 8  Data: 0x6F 0x3F 0x42 0x00 0xC1 0xF4 0x00 0x00
Standard ID: 0x12A       DLC: 8  Data: 0x00 0x00 0x00 0x00 0x00 0x00 0x00 0x00
Standard ID: 0x40A       DLC: 8  Data: 0xFF 0x01 0x08 0x50 0x00 0x44 0x00 0x00
Standard ID: 0x12A       DLC: 8  Data: 0x00 0x00 0x00 0x00 0x00 0x00 0x00 0x00
Standard ID: 0x127       DLC: 8  Data: 0x00 0x00 0x00 0x00 0x00 0x00 0x00 0x00
Standard ID: 0x0DF       DLC: 8  Data: 0x7D 0x27 0x10 0x00 0xCA 0x00 0xE1 0x67
Standard ID: 0x29A       DLC: 8  Data: 0x00 0x00 0x00 0x00 0x00 0x0D 0x23 0x42
Standard ID: 0x12A       DLC: 8  Data: 0x00 0x00 0x00 0x00 0x00 0x00 0x00 0x00
Standard ID: 0x127       DLC: 8  Data: 0x00 0x00 0x00 0x00 0x00 0x00 0x00 0x00
Standard ID: 0x12A       DLC: 8  Data: 0x00 0x00 0x00 0x00 0x00 0x00 0x00 0x00
Standard ID: 0x189       DLC: 8  Data: 0x6F 0x3F 0x42 0x00 0xC1 0xF4 0x00 0x00
Standard ID: 0x0DF       DLC: 8  Data: 0x7D 0x27 0x10 0x00 0xC9 0xFF 0xE1 0x65
Standard ID: 0x4C0       DLC: 8  Data: 0x00 0x08 0x03 0x01 0x2D 0x00 0x00 0x00
Standard ID: 0x09A       DLC: 8  Data: 0xE3 0xF8 0xC0 0x01 0xEA 0x68 0x38 0x00
Standard ID: 0x127       DLC: 8  Data: 0x00 0x00 0x00 0x00 0x00 0x00 0x00 0x00
Standard ID: 0x12A       DLC: 8  Data: 0x00 0x00 0x00 0x00 0x00 0x00 0x00 0x00
Standard ID: 0x4C0       DLC: 8  Data: 0x00 0x08 0x03 0x81 0x2D 0x00 0x00 0x00
Standard ID: 0x0DF       DLC: 8  Data: 0x7D 0x27 0x10 0x00 0xCA 0x00 0xE1 0x66
Standard ID: 0x189       DLC: 8  Data: 0x6F 0x3F 0x42 0x00 0xC1 0xF4 0x00 0x00
Standard ID: 0x12A       DLC: 8  Data: 0x00 0x00 0x00 0x00 0x00 0x00 0x00 0x00
Standard ID: 0x405       DLC: 8  Data: 0x01 0x67 0x58 0x22 0x52 0x4D 0x0F 0xA3
Standard ID: 0x12A       DLC: 8  Data: 0x00 0x00 0x00 0x00 0x00 0x00 0x00 0x00
Standard ID: 0x127       DLC: 8  Data: 0x00 0x00 0x00 0x00 0x00 0x00 0x00 0x00
Standard ID: 0x0DF       DLC: 8  Data: 0x7D 0x27 0x10 0x00 0xCA 0x00 0xE1 0x66
Standard ID: 0x40A       DLC: 8  Data: 0xFF 0x03 0x03 0x01 0x00 0x20 0x22 0x00
Standard ID: 0x12A       DLC: 8  Data: 0x00 0x00 0x00 0x00 0x00 0x00 0x00 0x00
Standard ID: 0x29A       DLC: 8  Data: 0x00 0x00 0x00 0x00 0x00 0x0D 0x23 0x42
Standard ID: 0x12A       DLC: 8  Data: 0x00 0x00 0x00 0x00 0x00 0x00 0x00 0x00
Standard ID: 0x189       DLC: 8  Data: 0x6F 0x3E 0x41 0x00 0xC1 0xF4 0x00 0x00
Standard ID: 0x0DF       DLC: 8  Data: 0x7D 0x27 0x10 0x00 0xCA 0x00 0xE1 0x65
Standard ID: 0x189       DLC: 8  Data: 0x6F 0x3F 0x42 0x00 0xC1 0xF4 0x00 0x00
Standard ID: 0x12A       DLC: 8  Data: 0x00 0x00 0x00 0x00 0x00 0x00 0x00 0x00
Standard ID: 0x127       DLC: 8  Data: 0x00 0x00 0x00 0x00 0x00 0x00 0x00 0x00
Standard ID: 0x12A       DLC: 8  Data: 0x00 0x00 0x00 0x00 0x00 0x00 0x00 0x00
Standard ID: 0x4C0       DLC: 8  Data: 0x00 0x08 0x03 0x81 0x2D 0x00 0x00 0x00
Standard ID: 0x0DF       DLC: 8  Data: 0x7D 0x27 0x10 0x00 0xCA 0x00 0xE1 0x65
Standard ID: 0x29A       DLC: 8  Data: 0x00 0x00 0x00 0x00 0x00 0x0D 0x23 0x42
Standard ID: 0x12A       DLC: 8  Data: 0x00 0x00 0x00 0x00 0x00 0x00 0x00 0x00
Standard ID: 0x127       DLC: 8  Data: 0x00 0x00 0x00 0x00 0x00 0x00 0x00 0x00
Standard ID: 0x09A       DLC: 8  Data: 0xE3 0xF8 0xC0 0x01 0xEA 0x68 0x38 0x00
Standard ID: 0x189       DLC: 8  Data: 0x6F 0x3F 0x42 0x00 0xC1 0xF4 0x00 0x00
Standard ID: 0x0DF       DLC: 8  Data: 0x7D 0x27 0x10 0x00 0xCA 0x00 0xE1 0x64
Standard ID: 0x394       DLC: 8  Data: 0x20 0x0A 0xBC 0x00 0x00 0x00 0x00 0x00
Standard ID: 0x09A       DLC: 8  Data: 0xE3 0xF8 0xC0 0x01 0xEA 0x68 0x38 0x00
Standard ID: 0x127       DLC: 8  Data: 0x00 0x00 0x00 0x00 0x00 0x00 0x00 0x00
Standard ID: 0x12A       DLC: 8  Data: 0x00 0x00 0x00 0x00 0x00 0x00 0x00 0x00
Standard ID: 0x40A       DLC: 8  Data: 0xFF 0x05 0x00 0x00 0x00 0x40 0x00 0x00
Standard ID: 0x0DF       DLC: 8  Data: 0x7D 0x27 0x10 0x00 0xC9 0xFF 0xE1 0x64
Standard ID: 0x400       DLC: 8  Data: 0x1D 0x00 0x00 0x02 0x00 0x01 0x03 0x00
Standard ID: 0x12A       DLC: 8  Data: 0x00 0x00 0x00 0x00 0x00 0x00 0x00 0x00
Standard ID: 0x189       DLC: 8  Data: 0x6F 0x3F 0x41 0x00 0xC1 0xF4 0x00 0x00
Standard ID: 0x12A       DLC: 8  Data: 0x00 0x00 0x00 0x00 0x00 0x00 0x00 0x00
Standard ID: 0x4C0       DLC: 8  Data: 0x00 0x00 0x03 0x01 0x2D 0x00 0x00 0x00
Standard ID: 0x0DF       DLC: 8  Data: 0x7D 0x27 0x10 0x00 0xCA 0x00 0xE1 0x63
Standard ID: 0x394       DLC: 8  Data: 0x20 0x0A 0xBC 0x00 0x00 0x00 0x00 0x00
Standard ID: 0x12A       DLC: 8  Data: 0x00 0x00 0x00 0x00 0x00 0x00 0x00 0x00
Standard ID: 0x29A       DLC: 8  Data: 0x00 0x00 0x00 0x00 0x00 0x0D 0x23 0x42
Standard ID: 0x12A       DLC: 8  Data: 0x00 0x00 0x00 0x00 0x00 0x00 0x00 0x00
Standard ID: 0x189       DLC: 8  Data: 0x6F 0x3F 0x41 0x00 0xC1 0xF4 0x00 0x00
Standard ID: 0x0DF       DLC: 8  Data: 0x7D 0x27 0x10 0x00 0xCA 0x00 0xE1 0x63
Standard ID: 0x189       DLC: 8  Data: 0x6F 0x3F 0x41 0x00 0xC1 0xF4 0x00 0x00
Standard ID: 0x09A       DLC: 8  Data: 0xE3 0xF8 0xC0 0x01 0xEA 0x68 0x38 0x00
Standard ID: 0x127       DLC: 8  Data: 0x00 0x00 0x00 0x00 0x00 0x00 0x00 0x00
Standard ID: 0x12A       DLC: 8  Data: 0x00 0x00 0x00 0x00 0x00 0x00 0x00 0x00
Standard ID: 0x127       DLC: 8  Data: 0x00 0x00 0x00 0x00 0x00 0x00 0x00 0x00
Standard ID: 0x0DF       DLC: 8  Data: 0x7D 0x27 0x10 0x00 0xCA 0x00 0xE1 0x63
Standard ID: 0x29A       DLC: 8  Data: 0x00 0x00 0x00 0x00 0x00 0x0D 0x23 0x42
Standard ID: 0x12A       DLC: 8  Data: 0x00 0x00 0x00 0x00 0x00 0x00 0x00 0x00
Standard ID: 0x40A       DLC: 8  Data: 0xFF 0x07 0x00 0x08 0x00 0x00 0x10 0x00
Standard ID: 0x12A       DLC: 8  Data: 0x00 0x00 0x00 0x00 0x00 0x00 0x00 0x00
Standard ID: 0x4C0       DLC: 8  Data: 0x00 0x08 0x03 0x01 0x2D 0x00 0x00 0x00
Standard ID: 0x0DF       DLC: 8  Data: 0x7D 0x27 0x10 0x00 0xCA 0x00 0xE1 0x63
Standard ID: 0x394       DLC: 8  Data: 0x20 0x0A 0xBC 0x00 0x00 0x00 0x00 0x00
Standard ID: 0x09A       DLC: 8  Data: 0xE3 0xF8 0xC0 0x01 0xEA 0x68 0x38 0x00
Standard ID: 0x127       DLC: 8  Data: 0x00 0x00 0x00 0x00 0x00 0x00 0x00 0x00
Standard ID: 0x12A       DLC: 8  Data: 0x00 0x00 0x00 0x00 0x00 0x00 0x00 0x00
Standard ID: 0x29A       DLC: 8  Data: 0x00 0x00 0x00 0x00 0x00 0x0D 0x23 0x42
Standard ID: 0x0DF       DLC: 8  Data: 0x7D 0x27 0x10 0x00 0xC9 0xFF 0xE1 0x60
Standard ID: 0x189       DLC: 8  Data: 0x6F 0x3F 0x41 0x00 0xC1 0xF4 0x00 0x00
Standard ID: 0x09A       DLC: 8  Data: 0xE3 0xF8 0xC0 0x01 0xEA 0x68 0x38 0x00
Standard ID: 0x189       DLC: 8  Data: 0x6F 0x3F 0x40 0x00 0xC1 0xF4 0x00 0x00
Standard ID: 0x12A       DLC: 8  Data: 0x00 0x00 0x00 0x00 0x00 0x00 0x00 0x00
Standard ID: 0x127       DLC: 8  Data: 0x00 0x00 0x00 0x00 0x00 0x00 0x00 0x00
Standard ID: 0x0DF       DLC: 8  Data: 0x7D 0x27 0x10 0x00 0xC9 0xFF 0xE1 0x5F
Standard ID: 0x4C0       DLC: 8  Data: 0x00 0x08 0x03 0x81 0x2D 0x00 0x00 0x00
Standard ID: 0x12A       DLC: 8  Data: 0x00 0x00 0x00 0x00 0x00 0x00 0x00 0x00
Standard ID: 0x29A       DLC: 8  Data: 0x00 0x00 0x00 0x00 0x00 0x0D 0x23 0x42
Standard ID: 0x12A       DLC: 8  Data: 0x00 0x00 0x00 0x00 0x00 0x00 0x00 0x00
Standard ID: 0x4C0       DLC: 8  Data: 0x00 0x08 0x03 0x01 0x2D 0x00 0x00 0x00
Standard ID: 0x0DF       DLC: 8  Data: 0x7D 0x27 0x10 0x00 0xCA 0x00 0xE1 0x5F
Standard ID: 0x40A       DLC: 8  Data: 0xC0 0x00 0x3E 0x58 0x22 0x52 0x54 0x3A
Standard ID: 0x09A       DLC: 8  Data: 0xE3 0xF8 0xC0 0x01 0xEA 0x68 0x38 0x00
Standard ID: 0x127       DLC: 8  Data: 0x00 0x00 0x00 0x00 0x00 0x00 0x00 0x00
Standard ID: 0x12A       DLC: 8  Data: 0x00 0x00 0x00 0x00 0x00 0x00 0x00 0x00
Standard ID: 0x127       DLC: 8  Data: 0x00 0x00 0x00 0x00 0x00 0x00 0x00 0x00
Standard ID: 0x0DF       DLC: 8  Data: 0x7D 0x27 0x10 0x00 0xCA 0x00 0xE1 0x5F
Standard ID: 0x29A       DLC: 8  Data: 0x00 0x00 0x00 0x00 0x00 0x0D 0x23 0x42
Standard ID: 0x09A       DLC: 8  Data: 0xE3 0xF8 0xC0 0x01 0xEA 0x68 0x38 0x00
Standard ID: 0x400       DLC: 8  Data: 0x1F 0x02 0x00 0x00 0x03 0x00 0x01 0x00
Standard ID: 0x12A       DLC: 8  Data: 0x00 0x00 0x00 0x00 0x00 0x00 0x00 0x00
Standard ID: 0x189       DLC: 8  Data: 0x6F 0x3F 0x40 0x00 0xC1 0xF4 0x00 0x00
Standard ID: 0x09A       DLC: 8  Data: 0xE3 0xF8 0xC0 0x01 0xEA 0x68 0x38 0x00
Standard ID: 0x4C0       DLC: 8  Data: 0x00 0x08 0x03 0x01 0x2D 0x00 0x00 0x00
Standard ID: 0x09A       DLC: 8  Data: 0xE3 0xF8 0xC0 0x01 0xEA 0x68 0x38 0x00
Standard ID: 0x127       DLC: 8  Data: 0x00 0x00 0x00 0x00 0x00 0x00 0x00 0x00
Standard ID: 0x12A       DLC: 8  Data: 0x00 0x00 0x00 0x00 0x00 0x00 0x00 0x00
Standard ID: 0x4C0       DLC: 8  Data: 0x00 0x08 0x03 0x81 0x2D 0x00 0x00 0x00
Standard ID: 0x0DF       DLC: 8  Data: 0x7D 0x27 0x10 0x00 0xC9 0xFE 0xE1 0x5A
Standard ID: 0x189       DLC: 8  Data: 0x6F 0x3F 0x40 0x00 0xC1 0xF5 0x00 0x00
Standard ID: 0x09A       DLC: 8  Data: 0xE3 0xF8 0xC0 0x01 0xEA 0x68 0x38 0x00
Standard ID: 0x189       DLC: 8  Data: 0x6F 0x3F 0x3D 0x00 0xC1 0xF5 0x00 0x00
Standard ID: 0x12A       DLC: 8  Data: 0x00 0x00 0x00 0x00 0x00 0x00 0x00 0x00
Standard ID: 0x40A       DLC: 8  Data: 0xFF 0x0A 0x01 0x12 0x00 0x30 0x11 0x80
Standard ID: 0x0DF       DLC: 8  Data: 0x7D 0x27 0x10 0x00 0xC9 0xFE 0xE1 0x55
Standard ID: 0x394       DLC: 8  Data: 0x20 0x0A 0xBC 0x00 0x00 0x00 0x00 0x00
Standard ID: 0x12A       DLC: 8  Data: 0x00 0x00 0x00 0x00 0x00 0x00 0x00 0x00
Standard ID: 0x29A       DLC: 8  Data: 0x00 0x00 0x00 0x00 0x00 0x0D 0x23 0x42
Standard ID: 0x12A       DLC: 8  Data: 0x00 0x00 0x00 0x00 0x00 0x00 0x00 0x00
Standard ID: 0x189       DLC: 8  Data: 0x6F 0x3F 0x3D 0x00 0xC1 0xF6 0x00 0x00
Standard ID: 0x0DF       DLC: 8  Data: 0x7D 0x27 0x10 0x00 0xC9 0xFE 0xE1 0x54
Standard ID: 0x405       DLC: 8  Data: 0x01 0x67 0x58 0x22 0x52 0x57 0xF0 0x5C
Standard ID: 0x09A       DLC: 8  Data: 0xE3 0xF8 0xC0 0x01 0xEA 0x68 0x38 0x00
Standard ID: 0x127       DLC: 8  Data: 0x00 0x00 0x00 0x00 0x00 0x00 0x00 0x00
Standard ID: 0x09A       DLC: 8  Data: 0xE3 0xF8 0xC0 0x01 0xEA 0x68 0x38 0x00
Standard ID: 0x4C0       DLC: 8  Data: 0x00 0x08 0x03 0x81 0x2D 0x00 0x00 0x00
Standard ID: 0x0DF       DLC: 8  Data: 0x7D 0x27 0x10 0x00 0xCA 0x00 0xE1 0x55
Standard ID: 0x29A       DLC: 8  Data: 0x00 0x00 0x00 0x00 0x00 0x0D 0x23 0x42
Standard ID: 0x12A       DLC: 8  Data: 0x00 0x00 0x00 0x00 0x00 0x00 0x00 0x00
Standard ID: 0x127       DLC: 8  Data: 0x00 0x00 0x00 0x00 0x00 0x00 0x00 0x00
Standard ID: 0x12A       DLC: 8  Data: 0x00 0x00 0x00 0x00 0x00 0x00 0x00 0x00
Standard ID: 0x189       DLC: 8  Data: 0x6F 0x3F 0x3A 0x00 0xC1 0xF6 0x00 0x00
Standard ID: 0x0DF       DLC: 8  Data: 0x7D 0x27 0x10 0x00 0xCA 0x01 0xE1 0x57
Standard ID: 0x394       DLC: 8  Data: 0x20 0x0A 0xBC 0x00 0x00 0x00 0x00 0x00
Standard ID: 0x09A       DLC: 8  Data: 0xE3 0xF8 0xC0 0x01 0xEA 0x68 0x38 0x00
Standard ID: 0x40A       DLC: 8  Data: 0xFF 0x0C 0x16 0x11 0x16 0x40 0x41 0x50
Standard ID: 0x12A       DLC: 8  Data: 0x00 0x00 0x00 0x00 0x00 0x00 0x00 0x00
Standard ID: 0x29A       DLC: 8  Data: 0x00 0x00 0x00 0x00 0x00 0x0D 0x23 0x42
Standard ID: 0x0DF       DLC: 8  Data: 0x7D 0x27 0x10 0x00 0xCA 0x01 0xE1 0x57
Standard ID: 0x24A       DLC: 8  Data: 0xDD 0x0C 0xF2 0xF3 0x30 0x01 0x00 0x00
Standard ID: 0x12A       DLC: 8  Data: 0x00 0x00 0x00 0x00 0x00 0x00 0x00 0x00
Standard ID: 0x189       DLC: 8  Data: 0x6F 0x3F 0x3B 0x00 0xC1 0xF5 0x00 0x00
Standard ID: 0x12A       DLC: 8  Data: 0x00 0x00 0x00 0x00 0x00 0x00 0x00 0x00
Standard ID: 0x4C0       DLC: 8  Data: 0x00 0x00 0x03 0x01 0x2D 0x00 0x00 0x00
Standard ID: 0x0DF       DLC: 8  Data: 0x7D 0x27 0x10 0x00 0xCA 0x00 0xE1 0x58
Standard ID: 0x394       DLC: 8  Data: 0x20 0x0A 0xBC 0x00 0x00 0x00 0x00 0x00
Standard ID: 0x09A       DLC: 8  Data: 0xE3 0xF8 0xC0 0x01 0xEA 0x68 0x38 0x00
Standard ID: 0x29A       DLC: 8  Data: 0x00 0x00 0x00 0x00 0x00 0x0D 0x23 0x42
Standard ID: 0x12A       DLC: 8  Data: 0x00 0x00 0x00 0x00 0x00 0x00 0x00 0x00
Standard ID: 0x400       DLC: 8  Data: 0x21 0x00 0x03 0x00 0x00 0x00 0x00 0x00
Standard ID: 0x0DF       DLC: 8  Data: 0x7D 0x27 0x10 0x00 0xCA 0x01 0xE1 0x59
Standard ID: 0x189       DLC: 8  Data: 0x6F 0x3F 0x3C 0x00 0xC1 0xF5 0x00 0x00
Standard ID: 0x09A       DLC: 8  Data: 0xE3 0xF8 0xC0 0x01 0xEA 0x68 0x38 0x00
Standard ID: 0x127       DLC: 8  Data: 0x00 0x00 0x00 0x00 0x00 0x00 0x00 0x00
Standard ID: 0x12A       DLC: 8  Data: 0x00 0x00 0x00 0x00 0x00 0x00 0x00 0x00
Standard ID: 0x127       DLC: 8  Data: 0x00 0x00 0x00 0x00 0x00 0x00 0x00 0x00
Standard ID: 0x0DF       DLC: 8  Data: 0x7D 0x27 0x10 0x00 0xCA 0x01 0xE1 0x5A
Standard ID: 0x40A       DLC: 8  Data: 0xFF 0x0E 0x00 0x00 0x0B 0x03 0x40 0x33
Standard ID: 0x12A       DLC: 8  Data: 0x00 0x00 0x00 0x00 0x00 0x00 0x00 0x00
Standard ID: 0x127       DLC: 8  Data: 0x00 0x00 0x00 0x00 0x00 0x00 0x00 0x00
Standard ID: 0x12A       DLC: 8  Data: 0x00 0x00 0x00 0x00 0x00 0x00 0x00 0x00
Standard ID: 0x4C0       DLC: 8  Data: 0x00 0x08 0x03 0x01 0x2D 0x00 0x00 0x00
Standard ID: 0x0DF       DLC: 8  Data: 0x7D 0x27 0x10 0x00 0xCA 0x00 0xE1 0x5A
Standard ID: 0x394       DLC: 8  Data: 0x20 0x0A 0xBC 0x00 0x00 0x00 0x00 0x00
Standard ID: 0x09A       DLC: 8  Data: 0xE3 0xF8 0xC0 0x01 0xEA 0x68 0x38 0x00
Standard ID: 0x127       DLC: 8  Data: 0x00 0x00 0x00 0x00 0x00 0x00 0x00 0x00
Standard ID: 0x12A       DLC: 8  Data: 0x00 0x00 0x00 0x00 0x00 0x00 0x00 0x00
Standard ID: 0x29A       DLC: 8  Data: 0x00 0x00 0x00 0x00 0x00 0x0D 0x23 0x42
Standard ID: 0x0DF       DLC: 8  Data: 0x7D 0x27 0x10 0x00 0xCA 0x00 0xE1 0x5B
Standard ID: 0x189       DLC: 8  Data: 0x6F 0x3F 0x3D 0x00 0xC1 0xF5 0x00 0x00
Standard ID: 0x09A       DLC: 8  Data: 0xE3 0xF8 0xC0 0x01 0xEA 0x68 0x38 0x00
Standard ID: 0x405       DLC: 8  Data: 0xFF 0x00 0x00 0x00 0x00 0x00 0x00 0x00
Standard ID: 0x12A       DLC: 8  Data: 0x00 0x00 0x00 0x00 0x00 0x00 0x00 0x00
Standard ID: 0x24A       DLC: 8  Data: 0xDD 0x0D 0xF1 0xF2 0x34 0x01 0x00 0x00
Standard ID: 0x09A       DLC: 8  Data: 0xE3 0xF8 0xC0 0x01 0xEA 0x68 0x38 0x00
Standard ID: 0x24A       DLC: 8  Data: 0xDD 0x0E 0xF0 0xF1 0x38 0x01 0x00 0x00
Standard ID: 0x12A       DLC: 8  Data: 0x00 0x00 0x00 0x00 0x00 0x00 0x00 0x00
Standard ID: 0x29A       DLC: 8  Data: 0x00 0x00 0x00 0x00 0x00 0x0D 0x23 0x42
Standard ID: 0x12A       DLC: 8  Data: 0x00 0x00 0x00 0x00 0x00 0x00 0x00 0x00
Standard ID: 0x4C0       DLC: 8  Data: 0x00 0x08 0x03 0x01 0x2D 0x00 0x00 0x00
Standard ID: 0x0DF       DLC: 8  Data: 0x7D 0x27 0x10 0x00 0xCA 0x00 0xE1 0x5C
Standard ID: 0x24A       DLC: 8  Data: 0xDD 0x01 0xFD 0xFE 0x04 0x01 0x00 0x00
Standard ID: 0x09A       DLC: 8  Data: 0xE3 0xF8 0xC0 0x01 0xEA 0x68 0x38 0x00
Standard ID: 0x24A       DLC: 8  Data: 0xDD 0x02 0xFC 0xFD 0x08 0x01 0x00 0x00
Standard ID: 0x12A       DLC: 8  Data: 0x00 0x00 0x00 0x00 0x00 0x00 0x00 0x00
Standard ID: 0x24A       DLC: 8  Data: 0xDD 0x03 0xFB 0xFC 0x0C 0x01 0x00 0x00
Standard ID: 0x0DF       DLC: 8  Data: 0x7D 0x27 0x10 0x00 0xCA 0x00 0xE1 0x5C
Standard ID: 0x24A       DLC: 8  Data: 0xDD 0x04 0xFA 0xFB 0x10 0x01 0x00 0x00
Standard ID: 0x09A       DLC: 8  Data: 0xE3 0xF8 0xC0 0x01 0xEA 0x68 0x38 0x00
Standard ID: 0x24A       DLC: 8  Data: 0xDD 0x05 0xF9 0xFA 0x14 0x01 0x00 0x00
Standard ID: 0x09A       DLC: 8  Data: 0xE3 0xF8 0xC0 0x01 0xEA 0x68 0x38 0x00
Standard ID: 0x24A       DLC: 8  Data: 0xDD 0x06 0xF8 0xF9 0x18 0x01 0x00 0x00
Standard ID: 0x0DF       DLC: 8  Data: 0x7D 0x27 0x10 0x00 0xCA 0x00 0xE1 0x5C
Standard ID: 0x24A       DLC: 8  Data: 0xDD 0x07 0xF7 0xF8 0x1C 0x01 0x00 0x00
Standard ID: 0x09A       DLC: 8  Data: 0xE3 0xF8 0xC0 0x01 0xEA 0x68 0x38 0x00
Standard ID: 0x24A       DLC: 8  Data: 0xDD 0x08 0xF6 0xF7 0x20 0x01 0x00 0x00
Standard ID: 0x12A       DLC: 8  Data: 0x00 0x00 0x00 0x00 0x00 0x00 0x00 0x00
Standard ID: 0x4C0       DLC: 8  Data: 0x00 0x08 0x03 0x81 0x2D 0x00 0x00 0x00
Standard ID: 0x0DF       DLC: 8  Data: 0x7D 0x27 0x10 0x00 0xCA 0x00 0xE1 0x5C
Standard ID: 0x24A       DLC: 8  Data: 0xDD 0x0A 0xF4 0xF5 0x28 0x01 0x00 0x00
Standard ID: 0x12A       DLC: 8  Data: 0x00 0x00 0x00 0x00 0x00 0x00 0x00 0x00
Standard ID: 0x24A       DLC: 8  Data: 0xDD 0x0B 0xF3 0xF4 0x2C 0x01 0x00 0x00
Standard ID: 0x12A       DLC: 8  Data: 0x00 0x00 0x00 0x00 0x00 0x00 0x00 0x00
Standard ID: 0x24A       DLC: 8  Data: 0xDD 0x0C 0xF2 0xF3 0x30 0x01 0x00 0x00
Standard ID: 0x09A       DLC: 8  Data: 0xE3 0xF8 0xC0 0x01 0xEA 0x68 0x38 0x00
Standard ID: 0x24A       DLC: 8  Data: 0xDD 0x0D 0xF1 0xF2 0x34 0x01 0x00 0x00
Standard ID: 0x09A       DLC: 8  Data: 0xE3 0xF8 0xC0 0x01 0xEA 0x68 0x38 0x00
Standard ID: 0x24A       DLC: 8  Data: 0xDD 0x0E 0xF0 0xF1 0x38 0x01 0x00 0x00
Standard ID: 0x0DC       DLC: 8  Data: 0x5B 0x33 0x80 0x00 0xC0 0x00 0x00 0x00
Standard ID: 0x189       DLC: 8  Data: 0x6F 0x3F 0x3E 0x00 0xC1 0xF4 0x00 0x00
Standard ID: 0x0DF       DLC: 8  Data: 0x7D 0x27 0x10 0x00 0xCA 0x00 0xE1 0x5C
Standard ID: 0x24A       DLC: 8  Data: 0xDD 0x00 0xFE 0xFF 0x00 0x01 0x00 0x00
Standard ID: 0x09A       DLC: 8  Data: 0xE3 0xF8 0xC0 0x01 0xEA 0x68 0x38 0x00
Standard ID: 0x24A       DLC: 8  Data: 0xDD 0x01 0xFD 0xFE 0x04 0x01 0x00 0x00
Standard ID: 0x09A       DLC: 8  Data: 0xE3 0xF8 0xC0 0x01 0xEA 0x68 0x38 0x00
Standard ID: 0x24A       DLC: 8  Data: 0xDD 0x02 0xFC 0xFD 0x08 0x01 0x00 0x00
Standard ID: 0x0DF       DLC: 8  Data: 0x7D 0x27 0x10 0x00 0xCA 0x00 0xE1 0x5C
Standard ID: 0x24A       DLC: 8  Data: 0xDD 0x03 0xFB 0xFC 0x0C 0x01 0x00 0x00
Standard ID: 0x12A       DLC: 8  Data: 0x00 0x00 0x00 0x00 0x00 0x00 0x00 0x00
Standard ID: 0x24A       DLC: 8  Data: 0xDD 0x04 0xFA 0xFB 0x10 0x01 0x00 0x00
Standard ID: 0x12A       DLC: 8  Data: 0x00 0x00 0x00 0x00 0x00 0x00 0x00 0x00
Standard ID: 0x24A       DLC: 8  Data: 0xDD 0x05 0xF9 0xFA 0x14 0x01 0x00 0x00
Standard ID: 0x0DF       DLC: 8  Data: 0x7D 0x27 0x10 0x00 0xCA 0x00 0xE1 0x5B
Standard ID: 0x24A       DLC: 8  Data: 0xDD 0x06 0xF8 0xF9 0x18 0x01 0x00 0x00
Standard ID: 0x09A       DLC: 8  Data: 0xE3 0xF8 0xC0 0x01 0xEA 0x68 0x38 0x00
Standard ID: 0x24A       DLC: 8  Data: 0xDD 0x07 0xF7 0xF8 0x1C 0x01 0x00 0x00
Standard ID: 0x12A       DLC: 8  Data: 0x00 0x00 0x00 0x00 0x00 0x00 0x00 0x00
Standard ID: 0x24A       DLC: 8  Data: 0xDD 0x08 0xF6 0xF7 0x20 0x01 0x00 0x00
Standard ID: 0x0DF       DLC: 8  Data: 0x7D 0x27 0x10 0x00 0xCA 0x00 0xE1 0x5A
Standard ID: 0x24A       DLC: 8  Data: 0xDD 0x09 0xF5 0xF6 0x24 0x01 0x00 0x00
Standard ID: 0x09A       DLC: 8  Data: 0xE3 0xF8 0xC0 0x01 0xEA 0x68 0x38 0x00
Standard ID: 0x24A       DLC: 8  Data: 0xDD 0x0A 0xF4 0xF5 0x28 0x01 0x00 0x00
Standard ID: 0x09A       DLC: 8  Data: 0xE3 0xF8 0xC0 0x01 0xEA 0x68 0x38 0x00
Standard ID: 0x24A       DLC: 8  Data: 0xDD 0x0B 0xF3 0xF4 0x2C 0x01 0x00 0x00
Standard ID: 0x09A       DLC: 8  Data: 0xE3 0xF8 0xC0 0x01 0xEA 0x68 0x38 0x00
Standard ID: 0x24A       DLC: 8  Data: 0xDD 0x0C 0xF2 0xF3 0x30 0x01 0x00 0x00
Standard ID: 0x09A       DLC: 8  Data: 0xE3 0xF8 0xC0 0x01 0xEA 0x68 0x38 0x00
Standard ID: 0x24A       DLC: 8  Data: 0xDD 0x0D 0xF1 0xF2 0x34 0x01 0x00 0x00
Standard ID: 0x12A       DLC: 8  Data: 0x00 0x00 0x00 0x00 0x00 0x00 0x00 0x00
Standard ID: 0x24A       DLC: 8  Data: 0xDD 0x0E 0xF0 0xF1 0x38 0x01 0x00 0x00
Standard ID: 0x0DF       DLC: 8  Data: 0x7D 0x27 0x10 0x00 0xCA 0x00 0xE1 0x5A
Standard ID: 0x24A       DLC: 8  Data: 0xDD 0x0F 0xEF 0xF0 0x3C 0x01 0x00 0x00
Standard ID: 0x09A       DLC: 8  Data: 0xE3 0xF8 0xC0 0x01 0xEA 0x68 0x38 0x00
Standard ID: 0x24A       DLC: 8  Data: 0xDD 0x00 0xFE 0xFF 0x00 0x01 0x00 0x00
Standard ID: 0x12A       DLC: 8  Data: 0x00 0x00 0x00 0x00 0x00 0x00 0x00 0x00
Standard ID: 0x24A       DLC: 8  Data: 0xDD 0x01 0xFD 0xFE 0x04 0x01 0x00 0x00
Standard ID: 0x09A       DLC: 8  Data: 0xE3 0xF8 0xC0 0x01 0xEA 0x68 0x38 0x00
Standard ID: 0x24A       DLC: 8  Data: 0xDD 0x02 0xFC 0xFD 0x08 0x01 0x00 0x00
Standard ID: 0x12A       DLC: 8  Data: 0x00 0x00 0x00 0x00 0x00 0x00 0x00 0x00
Standard ID: 0x24A       DLC: 8  Data: 0xDD 0x03 0xFB 0xFC 0x0C 0x01 0x00 0x00
Standard ID: 0x09A       DLC: 8  Data: 0xE3 0xF8 0xC0 0x01 0xEA 0x68 0x38 0x00
Standard ID: 0x24A       DLC: 8  Data: 0xDD 0x04 0xFA 0xFB 0x10 0x01 0x00 0x00
Standard ID: 0x0DF       DLC: 8  Data: 0x7D 0x27 0x10 0x00 0xCA 0x00 0xE1 0x5B
Standard ID: 0x394       DLC: 8  Data: 0x20 0x0A 0xBC 0x00 0x00 0x00 0x00 0x00
Standard ID: 0x09A       DLC: 8  Data: 0xE3 0xF8 0xC0 0x01 0xEA 0x68 0x38 0x00
Standard ID: 0x24A       DLC: 8  Data: 0xDD 0x06 0xF8 0xF9 0x18 0x01 0x00 0x00
Standard ID: 0x09A       DLC: 8  Data: 0xE3 0xF8 0xC0 0x01 0xEA 0x68 0x38 0x00
Standard ID: 0x24A       DLC: 8  Data: 0xDD 0x07 0xF7 0xF8 0x1C 0x01 0x00 0x00
Standard ID: 0x0DF       DLC: 8  Data: 0x7D 0x27 0x10 0x00 0xCA 0x00 0xE1 0x5B
Standard ID: 0x24A       DLC: 8  Data: 0xDD 0x08 0xF6 0xF7 0x20 0x01 0x00 0x00
Standard ID: 0x09A       DLC: 8  Data: 0xE3 0xF8 0xC0 0x01 0xEA 0x68 0x38 0x00
Standard ID: 0x189       DLC: 8  Data: 0x6F 0x3F 0x3D 0x00 0xC1 0xF5 0x00 0x00
Standard ID: 0x12A       DLC: 8  Data: 0x00 0x00 0x00 0x00 0x00 0x00 0x00 0x00
Standard ID: 0x24A       DLC: 8  Data: 0xDD 0x0A 0xF4 0xF5 0x28 0x01 0x00 0x00
Standard ID: 0x09A       DLC: 8  Data: 0xE3 0xF8 0xC0 0x01 0xEA 0x68 0x38 0x00
Standard ID: 0x24A       DLC: 8  Data: 0xDD 0x0B 0xF3 0xF4 0x2C 0x01 0x00 0x00
Standard ID: 0x12A       DLC: 8  Data: 0x00 0x00 0x00 0x00 0x00 0x00 0x00 0x00
Standard ID: 0x40A       DLC: 8  Data: 0xFF 0x17 0x00 0x00 0x00 0x00 0x00 0x00
Standard ID: 0x12A       DLC: 8  Data: 0x00 0x00 0x00 0x00 0x00 0x00 0x00 0x00
Standard ID: 0x24A       DLC: 8  Data: 0xDD 0x0D 0xF1 0xF2 0x34 0x01 0x00 0x00
Standard ID: 0x0DF       DLC: 8  Data: 0x7D 0x27 0x10 0x00 0xC9 0xFF 0xE1 0x58
Standard ID: 0x24A       DLC: 8  Data: 0xDD 0x0E 0xF0 0xF1 0x38 0x01 0x00 0x00
Standard ID: 0x09A       DLC: 8  Data: 0xE3 0xF8 0xC0 0x01 0xEA 0x68 0x38 0x00
Standard ID: 0x0DF       DLC: 8  Data: 0x7D 0x27 0x10 0x00 0xC9 0xFF 0xE1 0x58
Standard ID: 0x09A       DLC: 8  Data: 0xE3 0xF8 0xC0 0x01 0xEA 0x68 0x38 0x00
Standard ID: 0x127       DLC: 8  Data: 0x00 0x00 0x00 0x00 0x00 0x00 0x00 0x00
Standard ID: 0x0DF       DLC: 8  Data: 0x7D 0x27 0x10 0x00 0xC9 0xFF 0xE1 0x58
Standard ID: 0x24A       DLC: 8  Data: 0xDD 0x01 0xFD 0xFE 0x04 0x01 0x00 0x00
Standard ID: 0x09A       DLC: 8  Data: 0xE3 0xF8 0xC0 0x01 0xEA 0x68 0x38 0x00
Standard ID: 0x24A       DLC: 8  Data: 0xDD 0x02 0xFC 0xFD 0x08 0x01 0x00 0x00
Standard ID: 0x12A       DLC: 8  Data: 0x00 0x00 0x00 0x00 0x00 0x00 0x00 0x00
Standard ID: 0x189       DLC: 8  Data: 0x6F 0x3F 0x3C 0x00 0xC1 0xF5 0x00 0x00
Standard ID: 0x0DF       DLC: 8  Data: 0x7D 0x27 0x10 0x00 0xCA 0x00 0xE1 0x56
Standard ID: 0x24A       DLC: 8  Data: 0xDD 0x04 0xFA 0xFB 0x10 0x01 0x00 0x00
Standard ID: 0x09A       DLC: 8  Data: 0xE3 0xF8 0xC0 0x01 0xEA 0x68 0x38 0x00
Standard ID: 0x24A       DLC: 8  Data: 0xDD 0x05 0xF9 0xFA 0x14 0x01 0x00 0x00
Standard ID: 0x12A       DLC: 8  Data: 0x00 0x00 0x00 0x00 0x00 0x00 0x00 0x00
Standard ID: 0x4C0       DLC: 8  Data: 0x00 0x08 0x03 0x81 0x2D 0x00 0x00 0x00
Standard ID: 0x0DF       DLC: 8  Data: 0x7D 0x27 0x10 0x00 0xC9 0xFF 0xE1 0x56
Standard ID: 0x40A       DLC: 8  Data: 0xC0 0x01 0x00 0x37 0x01 0x68 0x79 0x00
Standard ID: 0x09A       DLC: 8  Data: 0xE3 0xF8 0xC0 0x01 0xEA 0x68 0x38 0x00
Standard ID: 0x24A       DLC: 8  Data: 0xDD 0x08 0xF6 0xF7 0x20 0x01 0x00 0x00
Standard ID: 0x12A       DLC: 8  Data: 0x00 0x00 0x00 0x00 0x00 0x00 0x00 0x00
Standard ID: 0x24A       DLC: 8  Data: 0xDD 0x09 0xF5 0xF6 0x24 0x01 0x00 0x00
Standard ID: 0x09A       DLC: 8  Data: 0xE3 0xF8 0xC0 0x01 0xEA 0x68 0x38 0x00
Standard ID: 0x24A       DLC: 8  Data: 0xDD 0x0A 0xF4 0xF5 0x28 0x01 0x00 0x00
Standard ID: 0x09A       DLC: 8  Data: 0xE3 0xF8 0xC0 0x01 0xEA 0x68 0x38 0x00
Standard ID: 0x24A       DLC: 8  Data: 0xDD 0x0B 0xF3 0xF4 0x2C 0x01 0x00 0x00
Standard ID: 0x09A       DLC: 8  Data: 0xE3 0xF8 0xC0 0x01 0xEA 0x68 0x38 0x00
Standard ID: 0x24A       DLC: 8  Data: 0xDD 0x0C 0xF2 0xF3 0x30 0x01 0x00 0x00
Standard ID: 0x09A       DLC: 8  Data: 0xE3 0xF8 0xC0 0x01 0xEA 0x68 0x38 0x00
Standard ID: 0x24A       DLC: 8  Data: 0xDD 0x0D 0xF1 0xF2 0x34 0x01 0x00 0x00
Standard ID: 0x09A       DLC: 8  Data: 0xE3 0xF8 0xC0 0x01 0xEA 0x68 0x38 0x00
Standard ID: 0x24A       DLC: 8  Data: 0xDD 0x0E 0xF0 0xF1 0x38 0x01 0x00 0x00
Standard ID: 0x09A       DLC: 8  Data: 0xE3 0xF8 0xC0 0x01 0xEA 0x68 0x38 0x00
Standard ID: 0x24A       DLC: 8  Data: 0xDD 0x0F 0xEF 0xF0 0x3C 0x01 0x00 0x00
Standard ID: 0x0DF       DLC: 8  Data: 0x7D 0x27 0x10 0x00 0xCA 0x00 0xE1 0x58
Standard ID: 0x24A       DLC: 8  Data: 0xDD 0x00 0xFE 0xFF 0x00 0x01 0x00 0x00
Standard ID: 0x09A       DLC: 8  Data: 0xE3 0xF8 0xC0 0x01 0xEA 0x68 0x38 0x00
Standard ID: 0x127       DLC: 8  Data: 0x00 0x00 0x00 0x00 0x00 0x00 0x00 0x00
Standard ID: 0x12A       DLC: 8  Data: 0x00 0x00 0x00 0x00 0x00 0x00 0x00 0x00
Standard ID: 0x24A       DLC: 8  Data: 0xDD 0x02 0xFC 0xFD 0x08 0x01 0x00 0x00
Standard ID: 0x09A       DLC: 8  Data: 0xE3 0xF8 0xC0 0x01 0xEA 0x68 0x38 0x00
Standard ID: 0x24A       DLC: 8  Data: 0xDD 0x03 0xFB 0xFC 0x0C 0x01 0x00 0x00
Standard ID: 0x09A       DLC: 8  Data: 0xE3 0xF8 0xC0 0x01 0xEA 0x68 0x38 0x00
Standard ID: 0x24A       DLC: 8  Data: 0xDD 0x04 0xFA 0xFB 0x10 0x01 0x00 0x00
Standard ID: 0x12A       DLC: 8  Data: 0x00 0x00 0x00 0x00 0x00 0x00 0x00 0x00
Standard ID: 0x29A       DLC: 8  Data: 0x00 0x00 0x00 0x00 0x00 0x0D 0x23 0x42
Standard ID: 0x0DF       DLC: 8  Data: 0x7D 0x27 0x10 0x00 0xCA 0x00 0xE1 0x59
Standard ID: 0x24A       DLC: 8  Data: 0xDD 0x06 0xF8 0xF9 0x18 0x01 0x00 0x00
Standard ID: 0x09A       DLC: 8  Data: 0xE3 0xF8 0xC0 0x01 0xEA 0x68 0x38 0x00
Standard ID: 0x189       DLC: 8  Data: 0x6F 0x3F 0x3C 0x00 0xC1 0xF5 0x00 0x00
Standard ID: 0x09A       DLC: 8  Data: 0xE3 0xF8 0xC0 0x01 0xEA 0x68 0x38 0x00
Standard ID: 0x4C0       DLC: 8  Data: 0x00 0x00 0x03 0x01 0x2D 0x00 0x00 0x00
Standard ID: 0x09A       DLC: 8  Data: 0xE3 0xF8 0xC0 0x01 0xEA 0x68 0x38 0x00
Standard ID: 0x24A       DLC: 8  Data: 0xDD 0x09 0xF5 0xF6 0x24 0x01 0x00 0x00
Standard ID: 0x09A       DLC: 8  Data: 0xE3 0xF8 0xC0 0x01 0xEA 0x68 0x38 0x00
Standard ID: 0x24A       DLC: 8  Data: 0xDD 0x0A 0xF4 0xF5 0x28 0x01 0x00 0x00
Standard ID: 0x09A       DLC: 8  Data: 0xE3 0xF8 0xC0 0x01 0xEA 0x68 0x38 0x00
Standard ID: 0x24A       DLC: 8  Data: 0xDD 0x0B 0xF3 0xF4 0x2C 0x01 0x00 0x00
Standard ID: 0x09A       DLC: 8  Data: 0xE3 0xF8 0xC0 0x01 0xEA 0x68 0x38 0x00
Standard ID: 0x24A       DLC: 8  Data: 0xDD 0x0C 0xF2 0xF3 0x30 0x01 0x00 0x00
Standard ID: 0x09A       DLC: 8  Data: 0xE3 0xF8 0xC0 0x01 0xEA 0x68 0x38 0x00
Standard ID: 0x24A       DLC: 8  Data: 0xDD 0x0D 0xF1 0xF2 0x34 0x01 0x00 0x00
Standard ID: 0x0DC       DLC: 8  Data: 0x5B 0x33 0x80 0x00 0xC0 0x00 0x00 0x00
Standard ID: 0x24A       DLC: 8  Data: 0xDD 0x0E 0xF0 0xF1 0x38 0x01 0x00 0x00
Standard ID: 0x0DF       DLC: 8  Data: 0x7D 0x27 0x10 0x00 0xCA 0x00 0xE1 0x59
Standard ID: 0x29A       DLC: 8  Data: 0x00 0x00 0x00 0x00 0x00 0x0D 0x23 0x42
Standard ID: 0x09A       DLC: 8  Data: 0xE3 0xF8 0xC0 0x01 0xEA 0x68 0x38 0x00
Standard ID: 0x24A       DLC: 8  Data: 0xDD 0x00 0xFE 0xFF 0x00 0x01 0x00 0x00
Standard ID: 0x09A       DLC: 8  Data: 0xE3 0xF8 0xC0 0x01 0xEA 0x68 0x38 0x00
Standard ID: 0x24A       DLC: 8  Data: 0xDD 0x01 0xFD 0xFE 0x04 0x01 0x00 0x00
Standard ID: 0x09A       DLC: 8  Data: 0xE3 0xF8 0xC0 0x01 0xEA 0x68 0x38 0x00
Standard ID: 0x24A       DLC: 8  Data: 0xDD 0x02 0xFC 0xFD 0x08 0x01 0x00 0x00
Standard ID: 0x09A       DLC: 8  Data: 0xE3 0xF8 0xC0 0x01 0xEA 0x68 0x38 0x00
Standard ID: 0x24A       DLC: 8  Data: 0xDD 0x03 0xFB 0xFC 0x0C 0x01 0x00 0x00
Standard ID: 0x09A       DLC: 8  Data: 0xE3 0xF8 0xC0 0x01 0xEA 0x68 0x38 0x00
Standard ID: 0x24A       DLC: 8  Data: 0xDD 0x04 0xFA 0xFB 0x10 0x01 0x00 0x00
Standard ID: 0x0DF       DLC: 8  Data: 0x7D 0x27 0x10 0x00 0xCA 0x00 0xE1 0x59
Standard ID: 0x24A       DLC: 8  Data: 0xDD 0x05 0xF9 0xFA 0x14 0x01 0x00 0x00
Standard ID: 0x09A       DLC: 8  Data: 0xE3 0xF8 0xC0 0x01 0xEA 0x68 0x38 0x00
Standard ID: 0x24A       DLC: 8  Data: 0xDD 0x06 0xF8 0xF9 0x18 0x01 0x00 0x00
Standard ID: 0x09A       DLC: 8  Data: 0xE3 0xF8 0xC0 0x01 0xEA 0x68 0x38 0x00
Standard ID: 0x24A       DLC: 8  Data: 0xDD 0x07 0xF7 0xF8 0x1C 0x01 0x00 0x00
Standard ID: 0x09A       DLC: 8  Data: 0xE3 0xF8 0xC0 0x01 0xEA 0x68 0x38 0x00
Standard ID: 0x24A       DLC: 8  Data: 0xDD 0x08 0xF6 0xF7 0x20 0x01 0x00 0x00
Standard ID: 0x09A       DLC: 8  Data: 0xE3 0xF8 0xC0 0x01 0xEA 0x68 0x38 0x00
Standard ID: 0x24A       DLC: 8  Data: 0xDD 0x09 0xF5 0xF6 0x24 0x01 0x00 0x00
Standard ID: 0x09A       DLC: 8  Data: 0xE3 0xF8 0xC0 0x01 0xEA 0x68 0x38 0x00
Standard ID: 0x24A       DLC: 8  Data: 0xDD 0x0A 0xF4 0xF5 0x28 0x01 0x00 0x00
Standard ID: 0x09A       DLC: 8  Data: 0xE3 0xF8 0xC0 0x01 0xEA 0x68 0x38 0x00
Standard ID: 0x24A       DLC: 8  Data: 0xDD 0x0B 0xF3 0xF4 0x2C 0x01 0x00 0x00
Standard ID: 0x09A       DLC: 8  Data: 0xE3 0xF8 0xC0 0x01 0xEA 0x68 0x38 0x00
Standard ID: 0x24A       DLC: 8  Data: 0xDD 0x0C 0xF2 0xF3 0x30 0x01 0x00 0x00
Standard ID: 0x09A       DLC: 8  Data: 0xE3 0xF8 0xC0 0x01 0xEA 0x68 0x38 0x00
Standard ID: 0x24A       DLC: 8  Data: 0xDD 0x0D 0xF1 0xF2 0x34 0x01 0x00 0x00
Standard ID: 0x09A       DLC: 8  Data: 0xE3 0xF8 0xC0 0x01 0xEA 0x68 0x38 0x00
Standard ID: 0x24A       DLC: 8  Data: 0xDD 0x0E 0xF0 0xF1 0x38 0x01 0x00 0x00
Standard ID: 0x09A       DLC: 8  Data: 0xE3 0xF8 0xC0 0x01 0xEA 0x68 0x38 0x00
Standard ID: 0x24A       DLC: 8  Data: 0xDD 0x0F 0xEF 0xF0 0x3C 0x01 0x00 0x00
Standard ID: 0x09A       DLC: 8  Data: 0xE3 0xF8 0xC0 0x01 0xEA 0x68 0x38 0x00
Standard ID: 0x24A       DLC: 8  Data: 0xDD 0x00 0xFE 0xFF 0x00 0x01 0x00 0x00
Standard ID: 0x09A       DLC: 8  Data: 0xE3 0xF8 0xC0 0x01 0xEA 0x68 0x38 0x00
Standard ID: 0x24A       DLC: 8  Data: 0xDD 0x01 0xFD 0xFE 0x04 0x01 0x00 0x00
Standard ID: 0x09A       DLC: 8  Data: 0xE3 0xF8 0xC0 0x01 0xEA 0x68 0x38 0x00
Standard ID: 0x24A       DLC: 8  Data: 0xDD 0x02 0xFC 0xFD 0x08 0x01 0x00 0x00
Standard ID: 0x12A       DLC: 8  Data: 0x00 0x00 0x00 0x00 0x00 0x00 0x00 0x00
Standard ID: 0x24A       DLC: 8  Data: 0xDD 0x03 0xFB 0xFC 0x0C 0x01 0x00 0x00
Standard ID: 0x09A       DLC: 8  Data: 0xE3 0xF8 0xC0 0x01 0xEA 0x68 0x38 0x00
Standard ID: 0x24A       DLC: 8  Data: 0xDD 0x04 0xFA 0xFB 0x10 0x01 0x00 0x00
Standard ID: 0x09A       DLC: 8  Data: 0xE3 0xF8 0xC0 0x01 0xEA 0x68 0x38 0x00
Standard ID: 0x24A       DLC: 8  Data: 0xDD 0x05 0xF9 0xFA 0x14 0x01 0x00 0x00
Standard ID: 0x09A       DLC: 8  Data: 0xE3 0xF8 0xC0 0x01 0xEA 0x68 0x38 0x00
Standard ID: 0x24A       DLC: 8  Data: 0xDD 0x06 0xF8 0xF9 0x18 0x01 0x00 0x00
Standard ID: 0x09A       DLC: 8  Data: 0xE3 0xF8 0xC0 0x01 0xEA 0x68 0x38 0x00
Standard ID: 0x24A       DLC: 8  Data: 0xDD 0x07 0xF7 0xF8 0x1C 0x01 0x00 0x00
Standard ID: 0x09A       DLC: 8  Data: 0xE3 0xF8 0xC0 0x01 0xEA 0x68 0x38 0x00
Standard ID: 0x24A       DLC: 8  Data: 0xDD 0x08 0xF6 0xF7 0x20 0x01 0x00 0x00
Standard ID: 0x09A       DLC: 8  Data: 0xE3 0xF8 0xC0 0x01 0xEA 0x68 0x38 0x00
Standard ID: 0x189       DLC: 8  Data: 0x6F 0x3D 0x3C 0x00 0xC1 0xF5 0x00 0x00
Standard ID: 0x09A       DLC: 8  Data: 0xE3 0xF8 0xC0 0x01 0xEA 0x68 0x38 0x00
Standard ID: 0x24A       DLC: 8  Data: 0xDD 0x0A 0xF4 0xF5 0x28 0x01 0x00 0x00
Standard ID: 0x09A       DLC: 8  Data: 0xE3 0xF8 0xC0 0x01 0xEA 0x68 0x38 0x00
Standard ID: 0x24A       DLC: 8  Data: 0xDD 0x0B 0xF3 0xF4 0x2C 0x01 0x00 0x00
Standard ID: 0x09A       DLC: 8  Data: 0xE3 0xF8 0xC0 0x01 0xEA 0x68 0x38 0x00
Standard ID: 0x24A       DLC: 8  Data: 0xDD 0x0C 0xF2 0xF3 0x30 0x01 0x00 0x00
Standard ID: 0x09A       DLC: 8  Data: 0xE3 0xF8 0xC0 0x01 0xEA 0x68 0x38 0x00
Standard ID: 0x24A       DLC: 8  Data: 0xDD 0x0D 0xF1 0xF2 0x34 0x01 0x00 0x00
Standard ID: 0x09A       DLC: 8  Data: 0xE3 0xF8 0xC0 0x01 0xEA 0x68 0x38 0x00
Standard ID: 0x40A       DLC: 8  Data: 0xFF 0x00 0x11 0x02 0x50 0x00 0x00 0x03
Standard ID: 0x09A       DLC: 8  Data: 0xE3 0xF8 0xC0 0x01 0xEA 0x68 0x38 0x00
Standard ID: 0x24A       DLC: 8  Data: 0xDD 0x0F 0xEF 0xF0 0x3C 0x01 0x00 0x00
