Standard ID: 0x021       DLC: 8  Data: 0xFE 0x21 0x00 0x00 0x00 0x01 0x00 0x00
Standard ID: 0x0B1       DLC: 8  Data: 0x93 0x04 0x79 0x00 0x00 0xA9 0x47 0x88
Standard ID: 0x1F3       DLC: 8  Data: 0x00 0xFF 0x00 0x06 0x00 0xF0 0x00 0xFF
Standard ID: 0x1F5       DLC: 6  Data: 0x00 0x00 0x00 0x00 0x00 0x0C
Standard ID: 0x021       DLC: 8  Data: 0xE3 0xA6 0x00 0x00 0x00 0x01 0x00 0x00
Standard ID: 0x10D       DLC: 4  Data: 0x00 0x00 0x00 0x00
Standard ID: 0x021       DLC: 8  Data: 0xC6 0x29 0x00 0x00 0x00 0x01 0x00 0x00
Standard ID: 0x13F       DLC: 8  Data: 0x00 0x82 0x00 0x01 0x03 0x50 0x00 0x00
Standard ID: 0x087       DLC: 8  Data: 0x57 0x0B 0x00 0x00 0x00 0x00 0x10 0x38
Standard ID: 0x137       DLC: 8  Data: 0xE4 0xFF 0x35 0x02 0x00 0x00 0x00 0x00
Standard ID: 0x179       DLC: 8  Data: 0xFF 0x0F 0x00 0x00 0x00 0x00 0x00 0x00
Standard ID: 0x14B       DLC: 8  Data: 0x05 0x00 0xB5 0x00 0x20 0x08 0x00 0x00
Standard ID: 0x1F3       DLC: 8  Data: 0x00 0xFF 0x00 0x06 0x00 0xF0 0x00 0xFF
Standard ID: 0x1F5       DLC: 6  Data: 0x00 0x00 0x00 0x00 0x00 0x0C
Standard ID: 0x021       DLC: 8  Data: 0xDC 0x25 0x00 0x00 0x00 0x01 0x00 0x00
Standard ID: 0x13F       DLC: 8  Data: 0x00 0x82 0x00 0x01 0x03 0x50 0x00 0x00
Standard ID: 0x220       DLC: 8  Data: 0xCE 0x96 0x84 0x1F 0x30 0x00 0x03 0x00
Standard ID: 0x273       DLC: 8  Data: 0xF3 0xFF 0x3F 0x00 0x00 0xAF 0xF0 0x03
Standard ID: 0x179       DLC: 8  Data: 0xFF 0x0F 0x00 0x00 0x00 0x00 0x00 0x00
Standard ID: 0x13F       DLC: 8  Data: 0x00 0x82 0x00 0x01 0x03 0x50 0x00 0x00
Standard ID: 0x021       DLC: 8  Data: 0xB8 0xAE 0x00 0x00 0x00 0x01 0x00 0x00
Standard ID: 0x14D       DLC: 8  Data: 0x00 0x24 0x00 0x00 0x28 0x00 0x00 0x04
Standard ID: 0x438       DLC: 8  Data: 0xFF 0xFF 0xFF 0xC0 0xFF 0xFF 0x0F 0x00
Standard ID: 0x14B       DLC: 8  Data: 0x05 0x00 0xB5 0x00 0x20 0x08 0x00 0x00
Standard ID: 0x021       DLC: 8  Data: 0xFF 0xA4 0x00 0x00 0x00 0x01 0x00 0x00
Standard ID: 0x424       DLC: 8  Data: 0x00 0x00 0x00 0x00 0x00 0x00 0x00 0x00
Standard ID: 0x179       DLC: 8  Data: 0xFF 0x0F 0x00 0x00 0x00 0x00 0x00 0x00
Standard ID: 0x13F       DLC: 8  Data: 0x00 0x82 0x00 0x01 0x03 0x50 0x00 0x00
Standard ID: 0x087       DLC: 8  Data: 0xC8 0x09 0x00 0x00 0x00 0x00 0x10 0x38
Standard ID: 0x137       DLC: 8  Data: 0xE4 0xFF 0x35 0x02 0x00 0x00 0x00 0x00
Standard ID: 0x021       DLC: 8  Data: 0x4F 0x2D 0x00 0x00 0x00 0x01 0x00 0x00
Standard ID: 0x14B       DLC: 8  Data: 0x05 0x00 0xB5 0x00 0x20 0x08 0x00 0x00
Standard ID: 0x1F3       DLC: 8  Data: 0x00 0xFF 0x00 0x06 0x00 0xF0 0x00 0xFF
Standard ID: 0x1F5       DLC: 6  Data: 0x00 0x00 0x00 0x00 0x00 0x0C
Standard ID: 0x179       DLC: 8  Data: 0xFF 0x0F 0x00 0x00 0x00 0x00 0x00 0x00
Standard ID: 0x13F       DLC: 8  Data: 0x00 0x82 0x00 0x01 0x03 0x50 0x00 0x00
Standard ID: 0x220       DLC: 8  Data: 0xEA 0x96 0x84 0x3B 0x90 0x00 0x03 0x00
Standard ID: 0x273       DLC: 8  Data: 0xF3 0xFF 0x3F 0x00 0x00 0xAF 0xF0 0x03
Standard ID: 0x189       DLC: 8  Data: 0x4E 0x0D 0x00 0x00 0x00 0x5A 0x00 0x15
Standard ID: 0x13F       DLC: 8  Data: 0x00 0x82 0x00 0x01 0x03 0x50 0x00 0x00
Standard ID: 0x021       DLC: 8  Data: 0xC2 0xAC 0x00 0x00 0x00 0x01 0x00 0x00
Standard ID: 0x14D       DLC: 8  Data: 0x00 0x14 0x00 0x00 0x18 0x00 0x00 0x04
Standard ID: 0x179       DLC: 8  Data: 0xFF 0x0F 0x00 0x00 0x00 0x00 0x00 0x00
Standard ID: 0x1F5       DLC: 6  Data: 0x00 0x00 0x00 0x00 0x00 0x0C
Standard ID: 0x021       DLC: 8  Data: 0x4B 0xA2 0x00 0x00 0x00 0x01 0x00 0x00
Standard ID: 0x10D       DLC: 4  Data: 0x00 0x00 0x00 0x00
Standard ID: 0x220       DLC: 8  Data: 0xCA 0x96 0x84 0x1B 0x10 0x00 0x03 0x00
Standard ID: 0x13F       DLC: 8  Data: 0x00 0x82 0x00 0x01 0x03 0x50 0x00 0x00
Standard ID: 0x087       DLC: 8  Data: 0x64 0x07 0x00 0x00 0x00 0x00 0x10 0x38
Standard ID: 0x137       DLC: 8  Data: 0xE4 0xFF 0x35 0x02 0x00 0x00 0x00 0x00
Standard ID: 0x179       DLC: 8  Data: 0xFF 0x0F 0x00 0x00 0x00 0x00 0x00 0x00
Standard ID: 0x14B       DLC: 8  Data: 0x05 0x00 0xB5 0x00 0x20 0x08 0x00 0x00
Standard ID: 0x353       DLC: 8  Data: 0x38 0x08 0x03 0xFC 0xE0 0xE0 0x11 0x00
Standard ID: 0x1F5       DLC: 6  Data: 0x00 0x00 0x00 0x00 0x00 0x0C
Standard ID: 0x021       DLC: 8  Data: 0xFE 0x21 0x00 0x00 0x00 0x01 0x00 0x00
Standard ID: 0x13F       DLC: 8  Data: 0x00 0x82 0x00 0x01 0x03 0x50 0x00 0x00
Standard ID: 0x220       DLC: 8  Data: 0xCA 0x97 0x84 0x1B 0x11 0x20 0x23 0x00
Standard ID: 0x273       DLC: 8  Data: 0xF3 0xFF 0x3F 0x00 0x00 0xAF 0xF0 0x03
Standard ID: 0x021       DLC: 8  Data: 0x6E 0x27 0x00 0x00 0x00 0x01 0x00 0x00
Standard ID: 0x13F       DLC: 8  Data: 0x00 0x82 0x00 0x01 0x03 0x50 0x00 0x00
Standard ID: 0x38E       DLC: 8  Data: 0x22 0x14 0x00 0x00 0x00 0x00 0x00 0x00
Standard ID: 0x14D       DLC: 8  Data: 0x00 0x04 0x00 0x00 0x08 0x00 0x00 0x04
Standard ID: 0x1F3       DLC: 8  Data: 0x00 0xFF 0x00 0x06 0x00 0xF0 0x00 0xFF
Standard ID: 0x1F5       DLC: 6  Data: 0x00 0x00 0x00 0x00 0x00 0x0C
Standard ID: 0x021       DLC: 8  Data: 0x24 0xA0 0x00 0x00 0x00 0x01 0x00 0x00
Standard ID: 0x10D       DLC: 4  Data: 0x00 0x00 0x00 0x00
Standard ID: 0x179       DLC: 8  Data: 0xFF 0x0F 0x00 0x00 0x00 0x00 0x00 0x00
Standard ID: 0x13F       DLC: 8  Data: 0x00 0x82 0x00 0x01 0x03 0x50 0x00 0x00
Standard ID: 0x087       DLC: 8  Data: 0xFB 0x05 0x00 0x00 0x00 0x00 0x10 0x38
Standard ID: 0x137       DLC: 8  Data: 0xE4 0xFF 0x35 0x02 0x00 0x00 0x00 0x00
Standard ID: 0x021       DLC: 8  Data: 0xC6 0x29 0x00 0x00 0x00 0x01 0x00 0x00
Standard ID: 0x14B       DLC: 8  Data: 0x05 0x00 0xB5 0x00 0x20 0x08 0x00 0x00
Standard ID: 0x1F3       DLC: 8  Data: 0x00 0xFF 0x00 0x06 0x00 0xF0 0x00 0xFF
Standard ID: 0x1F5       DLC: 6  Data: 0x00 0x00 0x00 0x00 0x00 0x0C
Standard ID: 0x179       DLC: 8  Data: 0xFF 0x0F 0x00 0x00 0x00 0x00 0x00 0x00
Standard ID: 0x13F       DLC: 8  Data: 0x00 0x82 0x00 0x01 0x03 0x50 0x00 0x00
Standard ID: 0x220       DLC: 8  Data: 0xCA 0x9E 0x84 0x1B 0x18 0x04 0x03 0x01
Standard ID: 0x273       DLC: 8  Data: 0xF3 0xFF 0x3F 0x00 0x00 0xAF 0xF0 0x03
Standard ID: 0x189       DLC: 8  Data: 0xCA 0x03 0x00 0x00 0x00 0x5A 0x00 0x15
Standard ID: 0x068       DLC: 1  Data: 0x02
Standard ID: 0x021       DLC: 8  Data: 0x89 0xA8 0x00 0x00 0x00 0x01 0x00 0x00
Standard ID: 0x14D       DLC: 8  Data: 0x00 0x34 0x00 0x00 0x38 0x00 0x00 0x04
Standard ID: 0x179       DLC: 8  Data: 0xFF 0x0F 0x00 0x00 0x00 0x00 0x00 0x00
Standard ID: 0x14B       DLC: 8  Data: 0x05 0x00 0xB5 0x00 0x20 0x08 0x00 0x00
Standard ID: 0x021       DLC: 8  Data: 0xB8 0xAE 0x00 0x00 0x00 0x01 0x00 0x00
Standard ID: 0x10D       DLC: 4  Data: 0x00 0x00 0x00 0x00
Standard ID: 0x220       DLC: 8  Data: 0xEA 0x96 0x84 0x3B 0x90 0x00 0x03 0x00
Standard ID: 0x13F       DLC: 8  Data: 0x00 0x82 0x00 0x01 0x03 0x50 0x00 0x00
Standard ID: 0x087       DLC: 8  Data: 0x75 0x03 0x00 0x00 0x00 0x00 0x10 0x38
Standard ID: 0x137       DLC: 8  Data: 0xE4 0xFF 0x35 0x02 0x00 0x00 0x00 0x00
Standard ID: 0x179       DLC: 8  Data: 0xFF 0x0F 0x00 0x00 0x00 0x00 0x00 0x00
Standard ID: 0x13F       DLC: 8  Data: 0x00 0x82 0x00 0x01 0x03 0x50 0x00 0x00
Standard ID: 0x40E       DLC: 6  Data: 0xD1 0x04 0x47 0xB1 0x33 0x90
Standard ID: 0x1F5       DLC: 6  Data: 0x00 0x00 0x00 0x00 0x00 0x0C
Extended ID: 0x0DBC0000  DLC: 8  Data: 0x00 0x00 0x00 0x00 0x00 0x00 0x00 0x00
Standard ID: 0x13F       DLC: 8  Data: 0x00 0x82 0x00 0x01 0x03 0x50 0x00 0x00
Standard ID: 0x220       DLC: 8  Data: 0xCA 0x96 0x84 0x1B 0x10 0x00 0x03 0x00
Standard ID: 0x273       DLC: 8  Data: 0xF3 0xFF 0x3F 0x00 0x00 0xAF 0xF0 0x03
Standard ID: 0x179       DLC: 8  Data: 0xFF 0x0F 0x00 0x00 0x00 0x00 0x00 0x00
Standard ID: 0x068       DLC: 1  Data: 0x02
Standard ID: 0x021       DLC: 8  Data: 0xE3 0xA6 0x00 0x00 0x00 0x01 0x00 0x00
Standard ID: 0x14D       DLC: 8  Data: 0x00 0x24 0x00 0x00 0x28 0x00 0x00 0x04
Standard ID: 0x1F3       DLC: 8  Data: 0x00 0xFF 0x00 0x06 0x00 0xF0 0x00 0xFF
Standard ID: 0x14B       DLC: 8  Data: 0x05 0x00 0xB5 0x00 0x20 0x08 0x00 0x00
Standard ID: 0x021       DLC: 8  Data: 0xC2 0xAC 0x00 0x00 0x00 0x01 0x00 0x00
Standard ID: 0x10D       DLC: 4  Data: 0x00 0x00 0x00 0x00
Standard ID: 0x021       DLC: 8  Data: 0x3C 0x2F 0x00 0x00 0x00 0x01 0x00 0x00
Standard ID: 0x13F       DLC: 8  Data: 0x00 0x82 0x00 0x01 0x03 0x50 0x00 0x00
Standard ID: 0x087       DLC: 8  Data: 0xEA 0x01 0x00 0x00 0x00 0x00 0x10 0x38
Standard ID: 0x137       DLC: 8  Data: 0xE4 0xFF 0x35 0x02 0x00 0x00 0x00 0x00
Standard ID: 0x021       DLC: 8  Data: 0xDC 0x25 0x00 0x00 0x00 0x01 0x00 0x00
Standard ID: 0x14B       DLC: 8  Data: 0x05 0x00 0xB5 0x00 0x20 0x08 0x00 0x00
Standard ID: 0x1F3       DLC: 8  Data: 0x00 0xFF 0x00 0x06 0x00 0xF0 0x00 0xFF
Standard ID: 0x1F5       DLC: 6  Data: 0x00 0x00 0x00 0x00 0x00 0x0C
Standard ID: 0x179       DLC: 8  Data: 0xFF 0x0F 0x00 0x00 0x00 0x00 0x00 0x00
Standard ID: 0x13F       DLC: 8  Data: 0x00 0x82 0x00 0x01 0x03 0x50 0x00 0x00
Standard ID: 0x220       DLC: 8  Data: 0xCE 0x96 0x84 0x1F 0x30 0x00 0x03 0x00
Standard ID: 0x273       DLC: 8  Data: 0xF3 0xFF 0x3F 0x00 0x00 0xAF 0xF0 0x03
Standard ID: 0x189       DLC: 8  Data: 0xA0 0x09 0x00 0x00 0x00 0x5A 0x00 0x15
Standard ID: 0x068       DLC: 1  Data: 0x02
Standard ID: 0x021       DLC: 8  Data: 0xFF 0xA4 0x00 0x00 0x00 0x01 0x00 0x00
Standard ID: 0x14D       DLC: 8  Data: 0x00 0x14 0x00 0x00 0x18 0x00 0x00 0x04
Standard ID: 0x1F3       DLC: 8  Data: 0x00 0xFF 0x00 0x06 0x00 0xF0 0x00 0xFF
Standard ID: 0x1F5       DLC: 6  Data: 0x00 0x00 0x00 0x00 0x00 0x0C
Standard ID: 0x2DE       DLC: 8  Data: 0x33 0xBC 0x64 0x08 0x00 0x00 0xC0 0x6B
Standard ID: 0x424       DLC: 8  Data: 0x00 0x00 0x00 0x00 0x00 0x00 0x00 0x00
Standard ID: 0x220       DLC: 8  Data: 0xCA 0x9E 0x84 0x1B 0x18 0x04 0x03 0x01
Standard ID: 0x13F       DLC: 8  Data: 0x00 0x82 0x00 0x01 0x03 0x50 0x00 0x00
Standard ID: 0x021       DLC: 8  Data: 0x24 0xA0 0x00 0x00 0x00 0x01 0x00 0x00
Standard ID: 0x137       DLC: 8  Data: 0xE4 0xFF 0x35 0x02 0x00 0x00 0x00 0x00
Standard ID: 0x179       DLC: 8  Data: 0xFF 0x0F 0x00 0x00 0x00 0x00 0x00 0x00
Standard ID: 0x14B       DLC: 8  Data: 0x05 0x00 0xB5 0x00 0x20 0x08 0x00 0x00
Standard ID: 0x1F3       DLC: 8  Data: 0x00 0xFF 0x00 0x06 0x00 0xF0 0x00 0xFF
Standard ID: 0x1F5       DLC: 6  Data: 0x00 0x00 0x00 0x00 0x00 0x0C
Standard ID: 0x021       DLC: 8  Data: 0xC6 0x29 0x00 0x00 0x00 0x01 0x00 0x00
Standard ID: 0x13F       DLC: 8  Data: 0x00 0x82 0x00 0x01 0x03 0x50 0x00 0x00
Standard ID: 0x220       DLC: 8  Data: 0xEA 0x96 0x84 0x3B 0x90 0x00 0x03 0x00
Standard ID: 0x273       DLC: 8  Data: 0xF3 0xFF 0x3F 0x00 0x00 0xAF 0xF0 0x03
Standard ID: 0x179       DLC: 8  Data: 0xFF 0x0F 0x00 0x00 0x00 0x00 0x00 0x00
Standard ID: 0x068       DLC: 1  Data: 0x02
Standard ID: 0x021       DLC: 8  Data: 0x4B 0xA2 0x00 0x00 0x00 0x01 0x00 0x00
Standard ID: 0x14D       DLC: 8  Data: 0x00 0x04 0x00 0x00 0x08 0x00 0x00 0x04
Standard ID: 0x1F3       DLC: 8  Data: 0x00 0xFF 0x00 0x06 0x00 0xF0 0x00 0xFF
Standard ID: 0x13F       DLC: 8  Data: 0x00 0x82 0x00 0x01 0x03 0x50 0x00 0x00
Standard ID: 0x021       DLC: 8  Data: 0x89 0xA8 0x00 0x00 0x00 0x01 0x00 0x00
Standard ID: 0x10D       DLC: 4  Data: 0x00 0x00 0x00 0x00
Standard ID: 0x179       DLC: 8  Data: 0xFF 0x0F 0x00 0x00 0x00 0x00 0x00 0x00
Standard ID: 0x13F       DLC: 8  Data: 0x00 0x82 0x00 0x01 0x03 0x50 0x00 0x00
Standard ID: 0x087       DLC: 8  Data: 0xD9 0x0D 0x00 0x00 0x00 0x00 0x10 0x38
Standard ID: 0x137       DLC: 8  Data: 0xE4 0xFF 0x35 0x02 0x00 0x00 0x00 0x00
Standard ID: 0x021       DLC: 8  Data: 0xFE 0x21 0x00 0x00 0x00 0x01 0x00 0x00
Standard ID: 0x14B       DLC: 8  Data: 0x05 0x00 0xB5 0x00 0x20 0x08 0x00 0x00
Standard ID: 0x1F3       DLC: 8  Data: 0x00 0xFF 0x00 0x06 0x00 0xF0 0x00 0xFF
Standard ID: 0x271       DLC: 8  Data: 0x51 0x0C 0x49 0x91 0x6A 0x25 0x11 0x02
Standard ID: 0x179       DLC: 8  Data: 0xFF 0x0F 0x00 0x00 0x00 0x00 0x00 0x00
Standard ID: 0x13F       DLC: 8  Data: 0x00 0x82 0x00 0x01 0x03 0x50 0x00 0x00
Standard ID: 0x021       DLC: 8  Data: 0xDD 0xAA 0x00 0x00 0x00 0x01 0x00 0x00
Standard ID: 0x273       DLC: 8  Data: 0xF3 0xFF 0x3F 0x00 0x00 0xAF 0xF0 0x03
Standard ID: 0x021       DLC: 8  Data: 0x4F 0x2D 0x00 0x00 0x00 0x01 0x00 0x00
Standard ID: 0x068       DLC: 1  Data: 0x02
Standard ID: 0x021       DLC: 8  Data: 0x24 0xA0 0x00 0x00 0x00 0x01 0x00 0x00
Standard ID: 0x14D       DLC: 8  Data: 0x00 0x34 0x00 0xFF 0x3B 0xFF 0x00 0x04
Standard ID: 0x179       DLC: 8  Data: 0xFF 0x0F 0x00 0x00 0x00 0x00 0x00 0x00
Standard ID: 0x13F       DLC: 8  Data: 0x00 0x82 0x00 0x01 0x03 0x50 0x00 0x00
Standard ID: 0x021       DLC: 8  Data: 0xE3 0xA6 0x00 0x00 0x00 0x01 0x00 0x00
Standard ID: 0x10D       DLC: 4  Data: 0x00 0x00 0x00 0x00
Standard ID: 0x220       DLC: 8  Data: 0xCE 0x96 0x84 0x1F 0x30 0x00 0x03 0x00
Standard ID: 0x13F       DLC: 8  Data: 0x00 0x82 0x00 0x01 0x03 0x50 0x00 0x00
Standard ID: 0x087       DLC: 8  Data: 0x57 0x0B 0x00 0x00 0x00 0x00 0x10 0x38
Standard ID: 0x137       DLC: 8  Data: 0xE4 0xFF 0x35 0x02 0x00 0x00 0x00 0x00
Standard ID: 0x179       DLC: 8  Data: 0xFF 0x0F 0x00 0x00 0x00 0x00 0x00 0x00
Standard ID: 0x14B       DLC: 8  Data: 0x05 0x00 0xB5 0x00 0x20 0x08 0x00 0x00
Standard ID: 0x1F3       DLC: 8  Data: 0x00 0xFF 0x00 0x06 0x00 0xF0 0x00 0xFF
Standard ID: 0x1F5       DLC: 6  Data: 0x00 0x00 0x00 0x00 0x00 0x0C
Standard ID: 0x021       DLC: 8  Data: 0xDC 0x25 0x00 0x00 0x00 0x01 0x00 0x00
Standard ID: 0x13F       DLC: 8  Data: 0x00 0x82 0x00 0x01 0x03 0x50 0x00 0x00
Standard ID: 0x220       DLC: 8  Data: 0xCA 0x9E 0x84 0x1B 0x18 0x04 0x03 0x01
Standard ID: 0x273       DLC: 8  Data: 0xF3 0xFF 0x3F 0x00 0x00 0xAF 0xF0 0x03
Standard ID: 0x179       DLC: 8  Data: 0xFF 0x0F 0x00 0x00 0x00 0x00 0x00 0x00
Standard ID: 0x068       DLC: 1  Data: 0x02
Standard ID: 0x021       DLC: 8  Data: 0xB8 0xAE 0x00 0x00 0x00 0x01 0x00 0x00
Standard ID: 0x14D       DLC: 8  Data: 0x00 0x24 0x00 0x00 0x28 0x00 0x00 0x04
Standard ID: 0x021       DLC: 8  Data: 0xFE 0x21 0x00 0x00 0x00 0x01 0x00 0x00
Standard ID: 0x1F5       DLC: 6  Data: 0x00 0x00 0x00 0x00 0x00 0x0C
Standard ID: 0x021       DLC: 8  Data: 0xFF 0xA4 0x00 0x00 0x00 0x01 0x00 0x00
Standard ID: 0x10D       DLC: 4  Data: 0x00 0x00 0x00 0x00
Standard ID: 0x179       DLC: 8  Data: 0xFF 0x0F 0x00 0x00 0x00 0x00 0x00 0x00
Standard ID: 0x13F       DLC: 8  Data: 0x00 0x82 0x00 0x01 0x03 0x50 0x00 0x00
Standard ID: 0x087       DLC: 8  Data: 0xC8 0x09 0x00 0x00 0x00 0x00 0x10 0x38
Standard ID: 0x137       DLC: 8  Data: 0xE4 0xFF 0x35 0x02 0x00 0x00 0x00 0x00
Standard ID: 0x021       DLC: 8  Data: 0x4F 0x2D 0x00 0x00 0x00 0x01 0x00 0x00
Standard ID: 0x14B       DLC: 8  Data: 0x05 0x00 0xB5 0x00 0x20 0x08 0x00 0x00
Standard ID: 0x1F3       DLC: 8  Data: 0x00 0xFF 0x00 0x06 0x00 0xF0 0x00 0xFF
Standard ID: 0x1F5       DLC: 6  Data: 0x00 0x00 0x00 0x00 0x00 0x0C
Standard ID: 0x179       DLC: 8  Data: 0xFF 0x0F 0x00 0x00 0x00 0x00 0x00 0x00
Standard ID: 0x14B       DLC: 8  Data: 0x05 0x00 0xB5 0x00 0x20 0x08 0x00 0x00
Standard ID: 0x220       DLC: 8  Data: 0xCA 0x96 0x84 0x1B 0x10 0x00 0x03 0x00
Standard ID: 0x273       DLC: 8  Data: 0xF3 0xFF 0x3F 0x00 0x00 0xAF 0xF0 0x03
Standard ID: 0x021       DLC: 8  Data: 0xC6 0x29 0x00 0x00 0x00 0x01 0x00 0x00
Standard ID: 0x068       DLC: 1  Data: 0x02
Standard ID: 0x021       DLC: 8  Data: 0xC2 0xAC 0x00 0x00 0x00 0x01 0x00 0x00
Standard ID: 0x14D       DLC: 8  Data: 0x00 0x14 0x00 0x00 0x18 0x00 0x00 0x04
Standard ID: 0x021       DLC: 8  Data: 0x3C 0x2F 0x00 0x00 0x00 0x01 0x00 0x00
Standard ID: 0x1F5       DLC: 6  Data: 0x00 0x00 0x00 0x00 0x00 0x0C
Standard ID: 0x021       DLC: 8  Data: 0x4B 0xA2 0x00 0x00 0x00 0x01 0x00 0x00
Standard ID: 0x10D       DLC: 4  Data: 0x00 0x00 0x00 0x00
Standard ID: 0x021       DLC: 8  Data: 0xDC 0x25 0x00 0x00 0x00 0x01 0x00 0x00
Standard ID: 0x13F       DLC: 8  Data: 0x00 0x82 0x00 0x01 0x03 0x50 0x00 0x00
Standard ID: 0x021       DLC: 8  Data: 0x89 0xA8 0x00 0x00 0x00 0x01 0x00 0x00
Standard ID: 0x137       DLC: 8  Data: 0xE4 0xFF 0x35 0x02 0x00 0x00 0x00 0x00
Standard ID: 0x021       DLC: 8  Data: 0x74 0x2B 0x00 0x00 0x00 0x01 0x00 0x00
Standard ID: 0x14B       DLC: 8  Data: 0x05 0x00 0xB5 0x00 0x20 0x08 0x00 0x00
Standard ID: 0x021       DLC: 8  Data: 0xB8 0xAE 0x00 0x00 0x00 0x01 0x00 0x00
Standard ID: 0x1F5       DLC: 6  Data: 0x00 0x00 0x00 0x00 0x00 0x0C
Standard ID: 0x021       DLC: 8  Data: 0xFE 0x21 0x00 0x00 0x00 0x01 0x00 0x00
Standard ID: 0x14B       DLC: 8  Data: 0x05 0x00 0xB5 0x00 0x20 0x08 0x00 0x00
Standard ID: 0x021       DLC: 8  Data: 0xFF 0xA4 0x00 0x00 0x00 0x01 0x00 0x00
Standard ID: 0x273       DLC: 8  Data: 0xF3 0xFF 0x3F 0x00 0x00 0xAF 0xF0 0x03
Standard ID: 0x021       DLC: 8  Data: 0x6E 0x27 0x00 0x00 0x00 0x01 0x00 0x00
Standard ID: 0x14B       DLC: 8  Data: 0x05 0x00 0xB5 0x00 0x20 0x08 0x00 0x00
Standard ID: 0x021       DLC: 8  Data: 0xDD 0xAA 0x00 0x00 0x00 0x01 0x00 0x00
Standard ID: 0x290       DLC: 8  Data: 0x21 0x15 0xF4 0x01 0x00 0x00 0x80 0x00
Standard ID: 0x021       DLC: 8  Data: 0x4F 0x2D 0x00 0x00 0x00 0x01 0x00 0x00
Standard ID: 0x275       DLC: 8  Data: 0x96 0x02 0x00 0x00 0x00 0x00 0x05 0x00
Standard ID: 0x021       DLC: 8  Data: 0x24 0xA0 0x00 0x00 0x00 0x01 0x00 0x00
Standard ID: 0x424       DLC: 8  Data: 0x00 0x00 0x00 0x00 0x00 0x00 0x00 0x00
Standard ID: 0x021       DLC: 8  Data: 0xE7 0x23 0x00 0x00 0x00 0x01 0x00 0x00
Standard ID: 0x2DD       DLC: 8  Data: 0x00 0x00 0x64 0x00 0x00 0x00 0x3F 0x00
Standard ID: 0x021       DLC: 8  Data: 0xE3 0xA6 0x00 0x00 0x00 0x01 0x00 0x00
Standard ID: 0x137       DLC: 8  Data: 0xE4 0xFF 0x35 0x02 0x00 0x00 0x00 0x00
Standard ID: 0x021       DLC: 8  Data: 0xC6 0x29 0x00 0x00 0x00 0x01 0x00 0x00
Standard ID: 0x290       DLC: 8  Data: 0x21 0x15 0xF4 0x01 0x00 0x00 0x80 0x00
Standard ID: 0x021       DLC: 8  Data: 0xC2 0xAC 0x00 0x00 0x00 0x01 0x00 0x00
Standard ID: 0x275       DLC: 8  Data: 0x91 0x05 0x00 0x00 0x00 0x00 0x05 0x00
Standard ID: 0x021       DLC: 8  Data: 0x3C 0x2F 0x00 0x00 0x00 0x01 0x00 0x00
Standard ID: 0x14B       DLC: 8  Data: 0x05 0x00 0xB5 0x00 0x20 0x08 0x00 0x00
Standard ID: 0x021       DLC: 8  Data: 0x4B 0xA2 0x00 0x00 0x00 0x01 0x00 0x00
Standard ID: 0x273       DLC: 8  Data: 0xF3 0xFF 0x3F 0x00 0x00 0xAF 0xF0 0x03
Standard ID: 0x021       DLC: 8  Data: 0xDC 0x25 0x00 0x00 0x00 0x01 0x00 0x00
Standard ID: 0x14B       DLC: 8  Data: 0x05 0x00 0xB5 0x00 0x20 0x08 0x00 0x00
Standard ID: 0x021       DLC: 8  Data: 0x89 0xA8 0x00 0x00 0x00 0x01 0x00 0x00
Standard ID: 0x290       DLC: 8  Data: 0x21 0x15 0xF4 0x01 0x00 0x00 0x80 0x00
Standard ID: 0x021       DLC: 8  Data: 0x74 0x2B 0x00 0x00 0x00 0x01 0x00 0x00
Standard ID: 0x275       DLC: 8  Data: 0x0E 0x08 0x00 0x00 0x00 0x00 0x05 0x00
Standard ID: 0x021       DLC: 8  Data: 0xB8 0xAE 0x00 0x00 0x00 0x01 0x00 0x00
Standard ID: 0x10D       DLC: 4  Data: 0x00 0x00 0x00 0x00
Standard ID: 0x021       DLC: 8  Data: 0xFE 0x21 0x00 0x00 0x00 0x01 0x00 0x00
Standard ID: 0x14B       DLC: 8  Data: 0x05 0x00 0xB5 0x00 0x20 0x08 0x00 0x00
Standard ID: 0x021       DLC: 8  Data: 0xFF 0xA4 0x00 0x00 0x00 0x01 0x00 0x00
Standard ID: 0x137       DLC: 8  Data: 0xE4 0xFF 0x35 0x02 0x00 0x00 0x00 0x00
Standard ID: 0x021       DLC: 8  Data: 0x6E 0x27 0x00 0x00 0x00 0x01 0x00 0x00
Standard ID: 0x290       DLC: 8  Data: 0x21 0x15 0xF4 0x01 0x00 0x00 0x80 0x00
Standard ID: 0x021       DLC: 8  Data: 0xDD 0xAA 0x00 0x00 0x00 0x01 0x00 0x00
Standard ID: 0x271       DLC: 8  Data: 0xC2 0x0A 0x49 0x91 0x6A 0x25 0x11 0x02
Standard ID: 0x021       DLC: 8  Data: 0x4F 0x2D 0x00 0x00 0x00 0x01 0x00 0x00
Standard ID: 0x14B       DLC: 8  Data: 0x05 0x00 0xB5 0x00 0x20 0x08 0x00 0x00
Standard ID: 0x021       DLC: 8  Data: 0x24 0xA0 0x00 0x00 0x00 0x01 0x00 0x00
Standard ID: 0x4B9       DLC: 8  Data: 0xFE 0xFF 0x00 0x60 0x09 0x00 0x00 0x00
Standard ID: 0x465       DLC: 8  Data: 0xFC 0x3F 0xF0 0x00 0x00 0x00 0x00 0x00
Standard ID: 0x14B       DLC: 8  Data: 0x05 0x00 0xB5 0x00 0x20 0x08 0x00 0x00
Standard ID: 0x021       DLC: 8  Data: 0xE3 0xA6 0x00 0x00 0x00 0x01 0x00 0x00
Standard ID: 0x290       DLC: 8  Data: 0x21 0x15 0xF4 0x01 0x00 0x00 0x80 0x00
Standard ID: 0x021       DLC: 8  Data: 0xC6 0x29 0x00 0x00 0x00 0x01 0x00 0x00
Standard ID: 0x275       DLC: 8  Data: 0x50 0x0E 0x00 0x00 0x00 0x00 0x05 0x00
Standard ID: 0x021       DLC: 8  Data: 0xC2 0xAC 0x00 0x00 0x00 0x01 0x00 0x00
Standard ID: 0x10D       DLC: 4  Data: 0x00 0x00 0x00 0x00
Standard ID: 0x021       DLC: 8  Data: 0x3C 0x2F 0x00 0x00 0x00 0x01 0x00 0x00
Standard ID: 0x14B       DLC: 8  Data: 0x05 0x00 0xB5 0x00 0x20 0x08 0x00 0x00
Standard ID: 0x021       DLC: 8  Data: 0x4B 0xA2 0x00 0x00 0x00 0x01 0x00 0x00
Standard ID: 0x137       DLC: 8  Data: 0xE4 0xFF 0x35 0x02 0x00 0x00 0x00 0x00
Standard ID: 0x021       DLC: 8  Data: 0xDC 0x25 0x00 0x00 0x00 0x01 0x00 0x00
Standard ID: 0x290       DLC: 8  Data: 0x21 0x15 0xF4 0x01 0x00 0x00 0x80 0x00
Standard ID: 0x021       DLC: 8  Data: 0x89 0xA8 0x00 0x00 0x00 0x01 0x00 0x00
Standard ID: 0x275       DLC: 8  Data: 0xBF 0x01 0x00 0x00 0x00 0x00 0x05 0x00
Standard ID: 0x021       DLC: 8  Data: 0x74 0x2B 0x00 0x00 0x00 0x01 0x00 0x00
Standard ID: 0x14B       DLC: 8  Data: 0x05 0x00 0xB5 0x00 0x20 0x08 0x00 0x00
Standard ID: 0x021       DLC: 8  Data: 0xB8 0xAE 0x00 0x00 0x00 0x01 0x00 0x00
Standard ID: 0x10D       DLC: 4  Data: 0x00 0x00 0x00 0x00
Standard ID: 0x021       DLC: 8  Data: 0xFE 0x21 0x00 0x00 0x00 0x01 0x00 0x00
Standard ID: 0x14B       DLC: 8  Data: 0x05 0x00 0xB5 0x00 0x20 0x08 0x00 0x00
Standard ID: 0x021       DLC: 8  Data: 0xFF 0xA4 0x00 0x00 0x00 0x01 0x00 0x00
Standard ID: 0x290       DLC: 8  Data: 0x21 0x15 0xF4 0x01 0x00 0x00 0x80 0x00
Standard ID: 0x021       DLC: 8  Data: 0x6E 0x27 0x00 0x00 0x00 0x01 0x00 0x00
Standard ID: 0x275       DLC: 8  Data: 0x66 0x04 0x00 0x00 0x00 0x00 0x05 0x00
Standard ID: 0x021       DLC: 8  Data: 0xDD 0xAA 0x00 0x00 0x00 0x01 0x00 0x00
Standard ID: 0x10D       DLC: 4  Data: 0x00 0x00 0x00 0x00
Standard ID: 0x021       DLC: 8  Data: 0x4F 0x2D 0x00 0x00 0x00 0x01 0x00 0x00
Standard ID: 0x14B       DLC: 8  Data: 0x05 0x00 0xB5 0x00 0x20 0x08 0x00 0x00
Standard ID: 0x021       DLC: 8  Data: 0x24 0xA0 0x00 0x00 0x00 0x01 0x00 0x00
Standard ID: 0x137       DLC: 8  Data: 0xE4 0xFF 0x35 0x02 0x00 0x00 0x00 0x00
Standard ID: 0x021       DLC: 8  Data: 0xE7 0x23 0x00 0x00 0x00 0x01 0x00 0x00
Standard ID: 0x14B       DLC: 8  Data: 0x05 0x00 0xB5 0x00 0x20 0x08 0x00 0x00
Standard ID: 0x021       DLC: 8  Data: 0xE3 0xA6 0x00 0x00 0x00 0x01 0x00 0x00
Standard ID: 0x275       DLC: 8  Data: 0x8D 0x07 0x00 0x00 0x00 0x00 0x05 0x00
Standard ID: 0x021       DLC: 8  Data: 0xC6 0x29 0x00 0x00 0x00 0x01 0x00 0x00
Standard ID: 0x14B       DLC: 8  Data: 0x05 0x00 0xB5 0x00 0x20 0x08 0x00 0x00
Standard ID: 0x021       DLC: 8  Data: 0xC2 0xAC 0x00 0x00 0x00 0x01 0x00 0x00
Standard ID: 0x273       DLC: 8  Data: 0xF3 0xFF 0x3F 0x00 0x00 0xAF 0xF0 0x03
Standard ID: 0x021       DLC: 8  Data: 0x3C 0x2F 0x00 0x00 0x00 0x01 0x00 0x00
Standard ID: 0x14B       DLC: 8  Data: 0x05 0x00 0xB5 0x00 0x20 0x08 0x00 0x00
Standard ID: 0x021       DLC: 8  Data: 0x4B 0xA2 0x00 0x00 0x00 0x01 0x00 0x00
Standard ID: 0x290       DLC: 8  Data: 0x21 0x15 0xF4 0x01 0x00 0x00 0x80 0x00
Standard ID: 0x021       DLC: 8  Data: 0xDC 0x25 0x00 0x00 0x00 0x01 0x00 0x00
Standard ID: 0x275       DLC: 8  Data: 0x12 0x0A 0x00 0x00 0x00 0x00 0x05 0x00
Standard ID: 0x021       DLC: 8  Data: 0x89 0xA8 0x00 0x00 0x00 0x01 0x00 0x00
Standard ID: 0x10D       DLC: 4  Data: 0x00 0x00 0x00 0x00
Standard ID: 0x021       DLC: 8  Data: 0x74 0x2B 0x00 0x00 0x00 0x01 0x00 0x00
Standard ID: 0x14B       DLC: 8  Data: 0x05 0x00 0xB5 0x00 0x20 0x08 0x00 0x00
Standard ID: 0x021       DLC: 8  Data: 0xB8 0xAE 0x00 0x00 0x00 0x01 0x00 0x00
Standard ID: 0x137       DLC: 8  Data: 0xE4 0xFF 0x35 0x02 0x00 0x00 0x00 0x00
Standard ID: 0x021       DLC: 8  Data: 0xFE 0x21 0x00 0x00 0x00 0x01 0x00 0x00
Standard ID: 0x290       DLC: 8  Data: 0x21 0x15 0xF4 0x01 0x00 0x00 0x80 0x00
Standard ID: 0x021       DLC: 8  Data: 0xFF 0xA4 0x00 0x00 0x00 0x01 0x00 0x00
Standard ID: 0x275       DLC: 8  Data: 0x15 0x0D 0x00 0x00 0x00 0x00 0x05 0x00
Standard ID: 0x021       DLC: 8  Data: 0x6E 0x27 0x00 0x00 0x00 0x01 0x00 0x00
Standard ID: 0x14B       DLC: 8  Data: 0x05 0x00 0xB5 0x00 0x20 0x08 0x00 0x00
Standard ID: 0x021       DLC: 8  Data: 0xDD 0xAA 0x00 0x00 0x00 0x01 0x00 0x00
Standard ID: 0x10D       DLC: 4  Data: 0x00 0x00 0x00 0x00
Standard ID: 0x021       DLC: 8  Data: 0x4F 0x2D 0x00 0x00 0x00 0x01 0x00 0x00
Standard ID: 0x14B       DLC: 8  Data: 0x05 0x00 0xB5 0x00 0x20 0x08 0x00 0x00
Standard ID: 0x021       DLC: 8  Data: 0x24 0xA0 0x00 0x00 0x00 0x01 0x00 0x00
Standard ID: 0x290       DLC: 8  Data: 0x21 0x15 0xF4 0x01 0x00 0x00 0x80 0x00
Standard ID: 0x021       DLC: 8  Data: 0xE7 0x23 0x00 0x00 0x00 0x01 0x00 0x00
Standard ID: 0x275       DLC: 8  Data: 0x74 0x00 0x00 0x00 0x00 0x00 0x05 0x00
Standard ID: 0x021       DLC: 8  Data: 0xE3 0xA6 0x00 0x00 0x00 0x01 0x00 0x00
Standard ID: 0x424       DLC: 8  Data: 0x00 0x00 0x00 0x00 0x00 0x00 0x00 0x00
Standard ID: 0x021       DLC: 8  Data: 0xC6 0x29 0x00 0x00 0x00 0x01 0x00 0x00
Standard ID: 0x2DD       DLC: 8  Data: 0x00 0x00 0x64 0x00 0x00 0x00 0x3F 0x00
Standard ID: 0x021       DLC: 8  Data: 0xC2 0xAC 0x00 0x00 0x00 0x01 0x00 0x00
Standard ID: 0x137       DLC: 8  Data: 0xE4 0xFF 0x35 0x02 0x00 0x00 0x00 0x00
Standard ID: 0x021       DLC: 8  Data: 0x3C 0x2F 0x00 0x00 0x00 0x01 0x00 0x00
Standard ID: 0x290       DLC: 8  Data: 0x21 0x15 0xF4 0x01 0x00 0x00 0x80 0x00
Standard ID: 0x021       DLC: 8  Data: 0x4B 0xA2 0x00 0x00 0x00 0x01 0x00 0x00
Standard ID: 0x275       DLC: 8  Data: 0x98 0x03 0x00 0x00 0x00 0x00 0x05 0x00
Standard ID: 0x021       DLC: 8  Data: 0xDC 0x25 0x00 0x00 0x00 0x01 0x00 0x00
Standard ID: 0x14B       DLC: 8  Data: 0x05 0x00 0xB5 0x00 0x20 0x08 0x00 0x00
Standard ID: 0x021       DLC: 8  Data: 0x89 0xA8 0x00 0x00 0x00 0x01 0x00 0x00
Standard ID: 0x10D       DLC: 4  Data: 0x00 0x00 0x00 0x00
Standard ID: 0x021       DLC: 8  Data: 0x74 0x2B 0x00 0x00 0x00 0x01 0x00 0x00
Standard ID: 0x14B       DLC: 8  Data: 0x05 0x00 0xB5 0x00 0x20 0x08 0x00 0x00
Standard ID: 0x021       DLC: 8  Data: 0xB8 0xAE 0x00 0x00 0x00 0x01 0x00 0x00
Standard ID: 0x290       DLC: 8  Data: 0x21 0x15 0xF4 0x01 0x00 0x00 0x80 0x00
Standard ID: 0x021       DLC: 8  Data: 0xFE 0x21 0x00 0x00 0x00 0x01 0x00 0x00
Standard ID: 0x275       DLC: 8  Data: 0xD4 0x06 0x00 0x00 0x00 0x00 0x05 0x00
Standard ID: 0x021       DLC: 8  Data: 0xFF 0xA4 0x00 0x00 0x00 0x01 0x00 0x00
Standard ID: 0x10D       DLC: 4  Data: 0x00 0x00 0x00 0x00
Standard ID: 0x021       DLC: 8  Data: 0x6E 0x27 0x00 0x00 0x00 0x01 0x00 0x00
Standard ID: 0x14B       DLC: 8  Data: 0x05 0x00 0xB5 0x00 0x20 0x08 0x00 0x00
Standard ID: 0x021       DLC: 8  Data: 0xDD 0xAA 0x00 0x00 0x00 0x01 0x00 0x00
Standard ID: 0x137       DLC: 8  Data: 0xE4 0xFF 0x35 0x02 0x00 0x00 0x00 0x00
Standard ID: 0x021       DLC: 8  Data: 0x4F 0x2D 0x00 0x00 0x00 0x01 0x00 0x00
Standard ID: 0x290       DLC: 8  Data: 0x21 0x15 0xF4 0x01 0x00 0x00 0x80 0x00
Standard ID: 0x021       DLC: 8  Data: 0x24 0xA0 0x00 0x00 0x00 0x01 0x00 0x00
Standard ID: 0x271       DLC: 8  Data: 0x56 0x08 0x49 0x91 0x6A 0x25 0x11 0x02
Standard ID: 0x021       DLC: 8  Data: 0xE7 0x23 0x00 0x00 0x00 0x01 0x00 0x00
Standard ID: 0x14B       DLC: 8  Data: 0x05 0x00 0xB5 0x00 0x20 0x08 0x00 0x00
Standard ID: 0x021       DLC: 8  Data: 0xE3 0xA6 0x00 0x00 0x00 0x01 0x00 0x00
Standard ID: 0x4B9       DLC: 8  Data: 0xFE 0xFF 0x00 0x60 0x09 0x00 0x00 0x00
Standard ID: 0x465       DLC: 8  Data: 0xFC 0x3F 0xF0 0x00 0x00 0x00 0x00 0x00
Standard ID: 0x14B       DLC: 8  Data: 0x05 0x00 0xB5 0x00 0x20 0x08 0x00 0x00
Standard ID: 0x021       DLC: 8  Data: 0xC2 0xAC 0x00 0x00 0x00 0x01 0x00 0x00
Standard ID: 0x290       DLC: 8  Data: 0x21 0x15 0xF4 0x01 0x00 0x00 0x80 0x00
Standard ID: 0x021       DLC: 8  Data: 0x3C 0x2F 0x00 0x00 0x00 0x01 0x00 0x00
Standard ID: 0x275       DLC: 8  Data: 0x4C 0x0C 0x00 0x00 0x00 0x00 0x05 0x00
Standard ID: 0x021       DLC: 8  Data: 0x4B 0xA2 0x00 0x00 0x00 0x01 0x00 0x00
Standard ID: 0x10D       DLC: 4  Data: 0x00 0x00 0x00 0x00
Standard ID: 0x021       DLC: 8  Data: 0xDC 0x25 0x00 0x00 0x00 0x01 0x00 0x00
Standard ID: 0x14B       DLC: 8  Data: 0x05 0x00 0xB5 0x00 0x20 0x08 0x00 0x00
Standard ID: 0x021       DLC: 8  Data: 0x89 0xA8 0x00 0x00 0x00 0x01 0x00 0x00
Standard ID: 0x137       DLC: 8  Data: 0xE4 0xFF 0x35 0x02 0x00 0x00 0x00 0x00
Standard ID: 0x021       DLC: 8  Data: 0x74 0x2B 0x00 0x00 0x00 0x01 0x00 0x00
Standard ID: 0x290       DLC: 8  Data: 0x21 0x15 0xF4 0x01 0x00 0x00 0x80 0x00
Standard ID: 0x021       DLC: 8  Data: 0xB8 0xAE 0x00 0x00 0x00 0x01 0x00 0x00
Standard ID: 0x275       DLC: 8  Data: 0xF7 0x0F 0x00 0x00 0x00 0x00 0x05 0x00
Standard ID: 0x021       DLC: 8  Data: 0xFE 0x21 0x00 0x00 0x00 0x01 0x00 0x00
Standard ID: 0x14B       DLC: 8  Data: 0x05 0x00 0xB5 0x00 0x20 0x08 0x00 0x00
Standard ID: 0x021       DLC: 8  Data: 0xFF 0xA4 0x00 0x00 0x00 0x01 0x00 0x00
Standard ID: 0x10D       DLC: 4  Data: 0x00 0x00 0x00 0x00
Standard ID: 0x021       DLC: 8  Data: 0x6E 0x27 0x00 0x00 0x00 0x01 0x00 0x00
Standard ID: 0x14B       DLC: 8  Data: 0x05 0x00 0xB5 0x00 0x20 0x08 0x00 0x00
Standard ID: 0x021       DLC: 8  Data: 0xDD 0xAA 0x00 0x00 0x00 0x01 0x00 0x00
Standard ID: 0x290       DLC: 8  Data: 0x21 0x15 0xF4 0x01 0x00 0x00 0x80 0x00
Standard ID: 0x021       DLC: 8  Data: 0x4F 0x2D 0x00 0x00 0x00 0x01 0x00 0x00
Standard ID: 0x275       DLC: 8  Data: 0x96 0x02 0x00 0x00 0x00 0x00 0x05 0x00
Standard ID: 0x021       DLC: 8  Data: 0x24 0xA0 0x00 0x00 0x00 0x01 0x00 0x00
Standard ID: 0x10D       DLC: 4  Data: 0x00 0x00 0x00 0x00
Standard ID: 0x021       DLC: 8  Data: 0xE7 0x23 0x00 0x00 0x00 0x01 0x00 0x00
Standard ID: 0x14B       DLC: 8  Data: 0x05 0x00 0xB5 0x00 0x20 0x08 0x00 0x00
Standard ID: 0x021       DLC: 8  Data: 0xE3 0xA6 0x00 0x00 0x00 0x01 0x00 0x00
Standard ID: 0x377       DLC: 8  Data: 0xC0 0x03 0xFF 0xFF 0xFF 0xF3 0x3F 0x00
Standard ID: 0x021       DLC: 8  Data: 0xC6 0x29 0x00 0x00 0x00 0x01 0x00 0x00
Standard ID: 0x483       DLC: 8  Data: 0x3F 0xFF 0x0F 0x03 0xFF 0x00 0x64 0xFF
Standard ID: 0x021       DLC: 8  Data: 0xC2 0xAC 0x00 0x00 0x00 0x01 0x00 0x00
Standard ID: 0x275       DLC: 8  Data: 0x91 0x05 0x00 0x00 0x00 0x00 0x05 0x00
Standard ID: 0x021       DLC: 8  Data: 0x3C 0x2F 0x00 0x00 0x00 0x01 0x00 0x00
Standard ID: 0x14B       DLC: 8  Data: 0x05 0x00 0xB5 0x00 0x20 0x08 0x00 0x00
Standard ID: 0x021       DLC: 8  Data: 0x4B 0xA2 0x00 0x00 0x00 0x01 0x00 0x00
Standard ID: 0x10D       DLC: 4  Data: 0x00 0x00 0x00 0x00
Standard ID: 0x021       DLC: 8  Data: 0xDC 0x25 0x00 0x00 0x00 0x01 0x00 0x00
Standard ID: 0x14B       DLC: 8  Data: 0x05 0x00 0xB5 0x00 0x20 0x08 0x00 0x00
Standard ID: 0x021       DLC: 8  Data: 0x89 0xA8 0x00 0x00 0x00 0x01 0x00 0x00
Standard ID: 0x290       DLC: 8  Data: 0x21 0x15 0xF4 0x01 0x00 0x00 0x80 0x00
Standard ID: 0x021       DLC: 8  Data: 0x74 0x2B 0x00 0x00 0x00 0x01 0x00 0x00
Standard ID: 0x275       DLC: 8  Data: 0x0E 0x08 0x00 0x00 0x00 0x00 0x05 0x00
Standard ID: 0x021       DLC: 8  Data: 0xB8 0xAE 0x00 0x00 0x00 0x01 0x00 0x00
Standard ID: 0x10D       DLC: 4  Data: 0x00 0x00 0x00 0x00
Standard ID: 0x021       DLC: 8  Data: 0xFE 0x21 0x00 0x00 0x00 0x01 0x00 0x00
Standard ID: 0x14B       DLC: 8  Data: 0x05 0x00 0xB5 0x00 0x20 0x08 0x00 0x00
Standard ID: 0x021       DLC: 8  Data: 0xFF 0xA4 0x00 0x00 0x00 0x01 0x00 0x00
Standard ID: 0x137       DLC: 8  Data: 0xE4 0xFF 0x35 0x02 0x00 0x00 0x00 0x00
Standard ID: 0x021       DLC: 8  Data: 0x6E 0x27 0x00 0x00 0x00 0x01 0x00 0x00
Standard ID: 0x290       DLC: 8  Data: 0x21 0x15 0xF4 0x01 0x00 0x00 0x80 0x00
Standard ID: 0x021       DLC: 8  Data: 0xDD 0xAA 0x00 0x00 0x00 0x01 0x00 0x00
Standard ID: 0x275       DLC: 8  Data: 0x1C 0x0B 0x00 0x00 0x00 0x00 0x05 0x00
Standard ID: 0x021       DLC: 8  Data: 0x4F 0x2D 0x00 0x00 0x00 0x01 0x00 0x00
Standard ID: 0x14B       DLC: 8  Data: 0x05 0x00 0xB5 0x00 0x20 0x08 0x00 0x00
Standard ID: 0x021       DLC: 8  Data: 0x24 0xA0 0x00 0x00 0x00 0x01 0x00 0x00
Standard ID: 0x10D       DLC: 4  Data: 0x00 0x00 0x00 0x00
Standard ID: 0x021       DLC: 8  Data: 0xE7 0x23 0x00 0x00 0x00 0x01 0x00 0x00
Standard ID: 0x14B       DLC: 8  Data: 0x05 0x00 0xB5 0x00 0x20 0x08 0x00 0x00
Standard ID: 0x021       DLC: 8  Data: 0xE3 0xA6 0x00 0x00 0x00 0x01 0x00 0x00
Standard ID: 0x290       DLC: 8  Data: 0x21 0x15 0xF4 0x01 0x00 0x00 0x80 0x00
Standard ID: 0x021       DLC: 8  Data: 0xC6 0x29 0x00 0x00 0x00 0x01 0x00 0x00
Standard ID: 0x275       DLC: 8  Data: 0x50 0x0E 0x00 0x00 0x00 0x00 0x05 0x00
Standard ID: 0x021       DLC: 8  Data: 0xC2 0xAC 0x00 0x00 0x00 0x01 0x00 0x00
Standard ID: 0x424       DLC: 8  Data: 0x00 0x00 0x00 0x00 0x00 0x00 0x00 0x00
Standard ID: 0x021       DLC: 8  Data: 0x3C 0x2F 0x00 0x00 0x00 0x01 0x00 0x00
Standard ID: 0x2DD       DLC: 8  Data: 0x00 0x00 0x64 0x00 0x00 0x00 0x3F 0x00
Standard ID: 0x021       DLC: 8  Data: 0x4B 0xA2 0x00 0x00 0x00 0x01 0x00 0x00
Standard ID: 0x137       DLC: 8  Data: 0xE4 0xFF 0x35 0x02 0x00 0x00 0x00 0x00
Standard ID: 0x021       DLC: 8  Data: 0xDC 0x25 0x00 0x00 0x00 0x01 0x00 0x00
Standard ID: 0x290       DLC: 8  Data: 0x21 0x15 0xF4 0x01 0x00 0x00 0x80 0x00
Standard ID: 0x021       DLC: 8  Data: 0x89 0xA8 0x00 0x00 0x00 0x01 0x00 0x00
Standard ID: 0x275       DLC: 8  Data: 0xBF 0x01 0x00 0x00 0x00 0x00 0x05 0x00
Standard ID: 0x021       DLC: 8  Data: 0x74 0x2B 0x00 0x00 0x00 0x01 0x00 0x00
Standard ID: 0x14B       DLC: 8  Data: 0x05 0x00 0xB5 0x00 0x20 0x08 0x00 0x00
Standard ID: 0x021       DLC: 8  Data: 0xB8 0xAE 0x00 0x00 0x00 0x01 0x00 0x00
Standard ID: 0x10D       DLC: 4  Data: 0x00 0x00 0x00 0x00
Standard ID: 0x021       DLC: 8  Data: 0xFE 0x21 0x00 0x00 0x00 0x01 0x00 0x00
Standard ID: 0x377       DLC: 8  Data: 0xC0 0x03 0xFF 0xFF 0xFF 0xF3 0x3F 0x00
Standard ID: 0x021       DLC: 8  Data: 0xFF 0xA4 0x00 0x00 0x00 0x01 0x00 0x00
Standard ID: 0x290       DLC: 8  Data: 0x21 0x15 0xF4 0x01 0x00 0x00 0x80 0x00
Standard ID: 0x021       DLC: 8  Data: 0x6E 0x27 0x00 0x00 0x00 0x01 0x00 0x00
Standard ID: 0x275       DLC: 8  Data: 0x66 0x04 0x00 0x00 0x00 0x00 0x05 0x00
Standard ID: 0x021       DLC: 8  Data: 0xDD 0xAA 0x00 0x00 0x00 0x01 0x00 0x00
Standard ID: 0x10D       DLC: 4  Data: 0x00 0x00 0x00 0x00
Standard ID: 0x021       DLC: 8  Data: 0x4F 0x2D 0x00 0x00 0x00 0x01 0x00 0x00
Standard ID: 0x14B       DLC: 8  Data: 0x05 0x00 0xB5 0x00 0x20 0x08 0x00 0x00
Standard ID: 0x021       DLC: 8  Data: 0x24 0xA0 0x00 0x00 0x00 0x01 0x00 0x00
Standard ID: 0x137       DLC: 8  Data: 0xE4 0xFF 0x35 0x02 0x00 0x00 0x00 0x00
Standard ID: 0x021       DLC: 8  Data: 0xE7 0x23 0x00 0x00 0x00 0x01 0x00 0x00
Standard ID: 0x379       DLC: 7  Data: 0xFF 0xFF 0xFF 0xFF 0xFF 0xFF 0x0F
Standard ID: 0x021       DLC: 8  Data: 0xE3 0xA6 0x00 0x00 0x00 0x01 0x00 0x00
Standard ID: 0x460       DLC: 8  Data: 0xFC 0xFF 0x1F 0x00 0x00 0xFF 0xFF 0x0F
Standard ID: 0x021       DLC: 8  Data: 0xC6 0x29 0x00 0x00 0x00 0x01 0x00 0x00
Standard ID: 0x14B       DLC: 8  Data: 0x05 0x00 0xB5 0x00 0x20 0x08 0x00 0x00
Standard ID: 0x021       DLC: 8  Data: 0xC2 0xAC 0x00 0x00 0x00 0x01 0x00 0x00
Standard ID: 0x4B9       DLC: 8  Data: 0xFE 0xFF 0x00 0x60 0x09 0x00 0x00 0x00
Standard ID: 0x465       DLC: 8  Data: 0xFC 0x3F 0xF0 0x00 0x00 0x00 0x00 0x00
Standard ID: 0x14B       DLC: 8  Data: 0x05 0x00 0xB5 0x00 0x20 0x08 0x00 0x00
Standard ID: 0x021       DLC: 8  Data: 0x4B 0xA2 0x00 0x00 0x00 0x01 0x00 0x00
Standard ID: 0x290       DLC: 8  Data: 0x21 0x15 0xF4 0x01 0x00 0x00 0x80 0x00
Standard ID: 0x021       DLC: 8  Data: 0xDC 0x25 0x00 0x00 0x00 0x01 0x00 0x00
Standard ID: 0x275       DLC: 8  Data: 0x12 0x0A 0x00 0x00 0x00 0x00 0x05 0x00
Standard ID: 0x021       DLC: 8  Data: 0x89 0xA8 0x00 0x00 0x00 0x01 0x00 0x00
Standard ID: 0x10D       DLC: 4  Data: 0x00 0x00 0x00 0x00
Standard ID: 0x021       DLC: 8  Data: 0x74 0x2B 0x00 0x00 0x00 0x01 0x00 0x00
Standard ID: 0x14B       DLC: 8  Data: 0x05 0x00 0xB5 0x00 0x20 0x08 0x00 0x00
Standard ID: 0x42D       DLC: 8  Data: 0xFF 0xE4 0x3B 0x0B 0x00 0x00 0xFF 0xFF
Standard ID: 0x137       DLC: 8  Data: 0xE4 0xFF 0x35 0x02 0x00 0x00 0x00 0x00
Standard ID: 0x021       DLC: 8  Data: 0xFE 0x21 0x00 0x00 0x00 0x01 0x00 0x00
Standard ID: 0x290       DLC: 8  Data: 0x21 0x15 0xF4 0x01 0x00 0x00 0x80 0x00
Standard ID: 0x021       DLC: 8  Data: 0xFF 0xA4 0x00 0x00 0x00 0x01 0x00 0x00
Standard ID: 0x275       DLC: 8  Data: 0x15 0x0D 0x00 0x00 0x00 0x00 0x05 0x00
Standard ID: 0x021       DLC: 8  Data: 0x6E 0x27 0x00 0x00 0x00 0x01 0x00 0x00
Standard ID: 0x10D       DLC: 4  Data: 0x00 0x00 0x00 0x00
Standard ID: 0x2CF       DLC: 8  Data: 0x00 0x00 0xBE 0xFF 0x04 0xCB 0x34 0x5C
Standard ID: 0x10D       DLC: 4  Data: 0x00 0x00 0x00 0x00
Standard ID: 0x404       DLC: 8  Data: 0x00 0x00 0x00 0x00 0x00 0x00 0x00 0x00
Standard ID: 0x137       DLC: 8  Data: 0xE4 0xFF 0x35 0x02 0x00 0x00 0x00 0x00
Standard ID: 0x39B       DLC: 8  Data: 0x24 0x29 0x01 0x00 0x00 0xC3 0x70 0x06
Standard ID: 0x290       DLC: 8  Data: 0x21 0x15 0xF4 0x01 0x00 0x00 0x80 0x00
Standard ID: 0x02F       DLC: 8  Data: 0x07 0x24 0x69 0x20 0x00 0x20 0xFF 0x3F
Standard ID: 0x10D       DLC: 4  Data: 0x00 0x00 0x00 0x00
Standard ID: 0x351       DLC: 8  Data: 0x10 0x80 0xFC 0x0F 0x50 0x15 0x11 0x00
Standard ID: 0x353       DLC: 8  Data: 0x38 0x08 0x03 0xFC 0xE0 0xE0 0x11 0x00
Standard ID: 0x357       DLC: 8  Data: 0x70 0xFF 0x00 0xFF 0x00 0x31 0x00 0x00
Standard ID: 0x10D       DLC: 4  Data: 0x00 0x00 0x00 0x00
Standard ID: 0x42D       DLC: 8  Data: 0xFF 0xE4 0x91 0x0E 0x00 0x00 0xFF 0xFF
Standard ID: 0x377       DLC: 8  Data: 0xC0 0x03 0xFF 0xFF 0xFF 0xF3 0x3F 0x00
Extended ID: 0x0BC80000  DLC: 8  Data: 0x3A 0x01 0x00 0x00 0x00 0x00 0x00 0x00
Standard ID: 0x47D       DLC: 6  Data: 0xA9 0x07 0xB8 0x0B 0xD0 0x07
Standard ID: 0x419       DLC: 8  Data: 0xFE 0xFE 0xC4 0x00 0xC0 0xC2 0x00 0x00
Extended ID: 0x0CB00000  DLC: 8  Data: 0x00 0x80 0xFE 0xFB 0x01 0x00 0x00 0x00
Standard ID: 0x339       DLC: 8  Data: 0x33 0x00 0x8C 0x00 0xC8 0x00 0x00 0x00
Standard ID: 0x10D       DLC: 4  Data: 0x00 0x00 0x00 0x00
Standard ID: 0x2CF       DLC: 8  Data: 0x00 0x00 0xBE 0xFF 0x04 0x40 0x3A 0x5C
Standard ID: 0x10D       DLC: 4  Data: 0x00 0x00 0x00 0x00
Standard ID: 0x404       DLC: 8  Data: 0x00 0x00 0x00 0x00 0x00 0x00 0x00 0x00
Standard ID: 0x137       DLC: 8  Data: 0xE4 0xFF 0x35 0x02 0x00 0x00 0x00 0x00
Standard ID: 0x02F       DLC: 8  Data: 0x80 0x2A 0x69 0x20 0x00 0x20 0xFF 0x3F
Standard ID: 0x10D       DLC: 4  Data: 0x00 0x00 0x00 0x00
Standard ID: 0x02F       DLC: 8  Data: 0xC8 0x20 0x69 0x20 0x00 0x20 0xFF 0x3F
Standard ID: 0x10D       DLC: 4  Data: 0x00 0x00 0x00 0x00
Standard ID: 0x351       DLC: 8  Data: 0x10 0x80 0xFC 0x0F 0x00 0x00 0x11 0x00
Standard ID: 0x10D       DLC: 4  Data: 0x00 0x00 0x00 0x00
Standard ID: 0x02F       DLC: 8  Data: 0xE5 0x2C 0x68 0x20 0x00 0x20 0xFF 0x3F
Standard ID: 0x10D       DLC: 4  Data: 0x00 0x00 0x00 0x00
Standard ID: 0x42D       DLC: 8  Data: 0xFF 0xE4 0x72 0x01 0x00 0x00 0xFF 0xFF
Standard ID: 0x137       DLC: 8  Data: 0xE4 0xFF 0x35 0x02 0x00 0x00 0x00 0x00
Standard ID: 0x02F       DLC: 8  Data: 0x0A 0x28 0x69 0x20 0x00 0x20 0xFF 0x3F
Standard ID: 0x10D       DLC: 4  Data: 0x00 0x00 0x00 0x00
Standard ID: 0x419       DLC: 8  Data: 0xFE 0xFE 0xC4 0x00 0xC0 0xC2 0x00 0x00
Extended ID: 0x0CB00000  DLC: 8  Data: 0x00 0x80 0xFE 0xFB 0x01 0x00 0x00 0x00
Standard ID: 0x1AB       DLC: 8  Data: 0x20 0x61 0x02 0x00 0x00 0x78 0x2A 0x55
Standard ID: 0x10D       DLC: 4  Data: 0x00 0x00 0x00 0x00
Standard ID: 0x1AB       DLC: 8  Data: 0x28 0x7C 0x02 0x00 0x00 0x06 0xA3 0x38
Standard ID: 0x10D       DLC: 4  Data: 0x00 0x00 0x00 0x00
Standard ID: 0x404       DLC: 8  Data: 0x00 0x00 0x00 0x00 0x00 0x00 0x00 0x00
Standard ID: 0x137       DLC: 8  Data: 0xE4 0xFF 0x35 0x02 0x00 0x00 0x00 0x00
Standard ID: 0x02F       DLC: 8  Data: 0x3E 0x26 0x68 0x20 0x00 0x20 0xFF 0x3F
Standard ID: 0x2E0       DLC: 8  Data: 0xC4 0x0A 0x00 0x00 0x00 0x00 0x00 0x00
Standard ID: 0x02F       DLC: 8  Data: 0x11 0x2C 0x69 0x20 0x00 0x20 0xFF 0x3F
Standard ID: 0x499       DLC: 8  Data: 0x00 0x00 0x64 0x60 0x4A 0x0E 0x00 0x00
Standard ID: 0x351       DLC: 8  Data: 0x10 0x80 0xFC 0x0F 0x50 0x15 0x11 0x00
Standard ID: 0x424       DLC: 8  Data: 0x00 0x00 0x00 0x00 0x00 0x00 0x00 0x00
Standard ID: 0x2CF       DLC: 8  Data: 0x00 0x00 0xBE 0xFF 0x04 0xEA 0x33 0x5C
Standard ID: 0x3F0       DLC: 8  Data: 0x20 0x00 0x00 0x00 0x00 0x00 0x00 0x00
Standard ID: 0x42D       DLC: 8  Data: 0xFF 0xE4 0xC4 0x04 0x00 0x00 0xFF 0xFF
Standard ID: 0x137       DLC: 8  Data: 0xE4 0xFF 0x35 0x02 0x00 0x00 0x00 0x00
Standard ID: 0x411       DLC: 4  Data: 0x5E 0x08 0x00 0x04
Standard ID: 0x10D       DLC: 4  Data: 0x00 0x00 0x00 0x00
Standard ID: 0x419       DLC: 8  Data: 0xFE 0xFE 0xC4 0x00 0xC0 0xC2 0x00 0x00
Extended ID: 0x0CB00000  DLC: 8  Data: 0x00 0x80 0xFE 0xFB 0x01 0x00 0x00 0x00
Standard ID: 0x339       DLC: 8  Data: 0x33 0x00 0x8C 0x00 0xC8 0x00 0x00 0x00
Standard ID: 0x10D       DLC: 4  Data: 0x00 0x00 0x00 0x00
Standard ID: 0x02F       DLC: 8  Data: 0xCA 0x26 0x69 0x20 0x00 0x20 0xFF 0x3F
Standard ID: 0x10D       DLC: 4  Data: 0x00 0x00 0x00 0x00
Standard ID: 0x404       DLC: 8  Data: 0x00 0x00 0x00 0x00 0x00 0x00 0x00 0x00
Standard ID: 0x377       DLC: 8  Data: 0xC0 0x03 0xFF 0xFF 0xFF 0xF3 0x3F 0x00
Extended ID: 0x0BC80000  DLC: 8  Data: 0x3E 0x04 0x00 0x00 0x00 0x00 0x00 0x00
Standard ID: 0x4A6       DLC: 8  Data: 0xFF 0xFF 0xC2 0x30 0x00 0x00 0x00 0x00
Standard ID: 0x02F       DLC: 8  Data: 0x0A 0x28 0x69 0x20 0x00 0x20 0xFF 0x3F
Standard ID: 0x10D       DLC: 4  Data: 0x00 0x00 0x00 0x00
Standard ID: 0x351       DLC: 8  Data: 0x10 0x80 0xFC 0x0F 0x00 0x00 0x11 0x00
Standard ID: 0x10D       DLC: 4  Data: 0x00 0x00 0x00 0x00
Standard ID: 0x02F       DLC: 8  Data: 0x07 0x24 0x69 0x20 0x00 0x20 0xFF 0x3F
Standard ID: 0x10D       DLC: 4  Data: 0x00 0x00 0x00 0x00
Standard ID: 0x42D       DLC: 8  Data: 0xFF 0xE4 0xA4 0x07 0x00 0x00 0xFF 0xFF
Standard ID: 0x137       DLC: 8  Data: 0xE4 0xFF 0x35 0x02 0x00 0x00 0x00 0x00
Standard ID: 0x02F       DLC: 8  Data: 0xC8 0x20 0x69 0x20 0x00 0x20 0xFF 0x3F
Standard ID: 0x379       DLC: 7  Data: 0xFF 0xFF 0xFF 0xFF 0xFF 0xFF 0x0F
Standard ID: 0x419       DLC: 8  Data: 0xFE 0xFE 0xC4 0x00 0xC0 0xC2 0x00 0x00
Standard ID: 0x460       DLC: 8  Data: 0xFC 0xFF 0x1F 0x00 0x00 0xFF 0xFF 0x0F
Standard ID: 0x339       DLC: 8  Data: 0x33 0x00 0x8C 0x00 0xC8 0x00 0x00 0x00
Standard ID: 0x10D       DLC: 4  Data: 0x00 0x00 0x00 0x00
Standard ID: 0x02F       DLC: 8  Data: 0x96 0x22 0x69 0x20 0x00 0x20 0xFF 0x3F
Standard ID: 0x10D       DLC: 4  Data: 0x00 0x00 0x00 0x00
Standard ID: 0x404       DLC: 8  Data: 0x00 0x00 0x00 0x00 0x00 0x00 0x00 0x00
Standard ID: 0x137       DLC: 8  Data: 0xE4 0xFF 0x35 0x02 0x00 0x00 0x00 0x00
Standard ID: 0x02F       DLC: 8  Data: 0xDC 0x2E 0x69 0x20 0x00 0x20 0xFF 0x3F
Standard ID: 0x10D       DLC: 4  Data: 0x00 0x00 0x00 0x00
Standard ID: 0x02F       DLC: 8  Data: 0x07 0x24 0x69 0x20 0x00 0x20 0xFF 0x3F
Standard ID: 0x10D       DLC: 4  Data: 0x00 0x00 0x00 0x00
Standard ID: 0x351       DLC: 8  Data: 0x10 0x80 0xFC 0x0F 0x50 0x15 0x11 0x00
Standard ID: 0x10D       DLC: 4  Data: 0x00 0x00 0x00 0x00
Standard ID: 0x02F       DLC: 8  Data: 0xC8 0x20 0x69 0x20 0x00 0x20 0xFF 0x3F
Standard ID: 0x10D       DLC: 4  Data: 0x00 0x00 0x00 0x00
Standard ID: 0x42D       DLC: 8  Data: 0xFF 0xE4 0x35 0x0A 0x00 0x00 0xFF 0xFF
Standard ID: 0x137       DLC: 8  Data: 0xE4 0xFF 0x35 0x02 0x00 0x00 0x00 0x00
Standard ID: 0x02F       DLC: 8  Data: 0x11 0x2C 0x69 0x20 0x00 0x20 0xFF 0x3F
Standard ID: 0x10D       DLC: 4  Data: 0x00 0x00 0x00 0x00
Standard ID: 0x419       DLC: 8  Data: 0xFE 0xFE 0xC4 0x00 0xC0 0xC2 0x00 0x00
Extended ID: 0x0CB00000  DLC: 8  Data: 0x00 0x80 0xFE 0xFB 0x01 0x00 0x00 0x00
Standard ID: 0x339       DLC: 8  Data: 0x33 0x00 0x8C 0x00 0xC8 0x00 0x00 0x00
Standard ID: 0x10D       DLC: 4  Data: 0x00 0x00 0x00 0x00
Standard ID: 0x02F       DLC: 8  Data: 0x71 0x2E 0x69 0x20 0x01 0x20 0xFF 0x3F
Standard ID: 0x10D       DLC: 4  Data: 0x00 0x00 0x00 0x00
Standard ID: 0x404       DLC: 8  Data: 0x00 0x00 0x00 0x00 0x00 0x00 0x00 0x00
Standard ID: 0x137       DLC: 8  Data: 0xE4 0xFF 0x35 0x02 0x00 0x00 0x00 0x00
Standard ID: 0x02F       DLC: 8  Data: 0x80 0x2A 0x69 0x20 0x00 0x20 0xFF 0x3F
Standard ID: 0x10D       DLC: 4  Data: 0x00 0x00 0x00 0x00
Standard ID: 0x02F       DLC: 8  Data: 0xC8 0x20 0x69 0x20 0x00 0x20 0xFF 0x3F
Standard ID: 0x10D       DLC: 4  Data: 0x00 0x00 0x00 0x00
Standard ID: 0x351       DLC: 8  Data: 0x10 0x80 0xFC 0x0F 0x00 0x00 0x11 0x00
Standard ID: 0x353       DLC: 8  Data: 0x38 0x08 0x03 0xFC 0xE0 0xE0 0x11 0x00
Standard ID: 0x357       DLC: 8  Data: 0x70 0xFF 0x00 0xFF 0x00 0x31 0x00 0x00
Standard ID: 0x10D       DLC: 4  Data: 0x00 0x00 0x00 0x00
Standard ID: 0x42D       DLC: 8  Data: 0xFF 0xE4 0x12 0x0D 0x00 0x00 0xFF 0xFF
Standard ID: 0x377       DLC: 8  Data: 0xC0 0x03 0xFF 0xFF 0xFF 0xF3 0x3F 0x00
Extended ID: 0x0BC80000  DLC: 8  Data: 0xF6 0x07 0x00 0x00 0x00 0x00 0x00 0x00
Standard ID: 0x483       DLC: 8  Data: 0x3F 0xFF 0x0F 0x03 0xFF 0x00 0x64 0xFF
Standard ID: 0x419       DLC: 8  Data: 0xFE 0xFE 0xC4 0x00 0xC0 0xC2 0x00 0x00
Standard ID: 0x499       DLC: 8  Data: 0x00 0x00 0x64 0x60 0x6A 0x03 0x00 0x00
Standard ID: 0x339       DLC: 8  Data: 0x33 0x00 0x8C 0x00 0xC8 0x00 0x00 0x00
Standard ID: 0x10D       DLC: 4  Data: 0x00 0x00 0x00 0x00
Standard ID: 0x02F       DLC: 8  Data: 0x80 0x2A 0x69 0x20 0x00 0x20 0xFF 0x3F
Standard ID: 0x10D       DLC: 4  Data: 0x00 0x00 0x00 0x00
Standard ID: 0x404       DLC: 8  Data: 0x00 0x00 0x00 0x00 0x00 0x00 0x00 0x00
Standard ID: 0x137       DLC: 8  Data: 0xE4 0xFF 0x35 0x02 0x00 0x00 0x00 0x00
Standard ID: 0x341       DLC: 8  Data: 0x00 0x00 0x0D 0x9F 0x0F 0x79 0x00 0x7F
Standard ID: 0x10D       DLC: 4  Data: 0x00 0x00 0x00 0x00
Standard ID: 0x02F       DLC: 8  Data: 0x11 0x2C 0x69 0x20 0x00 0x20 0xFF 0x3F
Standard ID: 0x499       DLC: 8  Data: 0x00 0x00 0x64 0x60 0xA7 0x06 0x00 0x00
Standard ID: 0x351       DLC: 8  Data: 0x10 0x80 0xFC 0x0F 0x50 0x15 0x11 0x00
Standard ID: 0x10D       DLC: 4  Data: 0x00 0x00 0x00 0x00
Standard ID: 0x02F       DLC: 8  Data: 0x0A 0x28 0x69 0x20 0x00 0x20 0xFF 0x3F
Standard ID: 0x10D       DLC: 4  Data: 0x00 0x00 0x00 0x00
Standard ID: 0x42D       DLC: 8  Data: 0xFF 0xE4 0xB4 0x00 0x00 0x00 0xFF 0xFF
Standard ID: 0x137       DLC: 8  Data: 0xE4 0xFF 0x35 0x02 0x00 0x00 0x00 0x00
Standard ID: 0x02F       DLC: 8  Data: 0x07 0x24 0x69 0x20 0x00 0x20 0xFF 0x3F
Standard ID: 0x10D       DLC: 4  Data: 0x00 0x00 0x00 0x00
Standard ID: 0x419       DLC: 8  Data: 0xFE 0xFE 0xC4 0x00 0xC0 0xC2 0x00 0x00
Extended ID: 0x0CB00000  DLC: 8  Data: 0x00 0x80 0xFE 0xFB 0x01 0x00 0x00 0x00
Standard ID: 0x1AB       DLC: 8  Data: 0x20 0xE5 0x05 0x00 0x00 0x78 0x2A 0x58
Standard ID: 0x10D       DLC: 4  Data: 0x00 0x00 0x00 0x00
Standard ID: 0x1AB       DLC: 8  Data: 0x28 0x00 0x05 0x00 0x00 0x05 0x4F 0x60
Standard ID: 0x10D       DLC: 4  Data: 0x00 0x00 0x00 0x00
Standard ID: 0x404       DLC: 8  Data: 0x00 0x00 0x00 0x00 0x00 0x00 0x00 0x00
Standard ID: 0x137       DLC: 8  Data: 0xE4 0xFF 0x35 0x02 0x00 0x00 0x00 0x00
Standard ID: 0x02F       DLC: 8  Data: 0x96 0x22 0x69 0x20 0x00 0x20 0xFF 0x3F
Standard ID: 0x10D       DLC: 4  Data: 0x00 0x00 0x00 0x00
Standard ID: 0x02F       DLC: 8  Data: 0x0A 0x28 0x69 0x20 0x00 0x20 0xFF 0x3F
Standard ID: 0x499       DLC: 8  Data: 0x00 0x00 0x64 0x60 0xC8 0x0C 0x00 0x00
Standard ID: 0x351       DLC: 8  Data: 0x10 0x80 0xFC 0x0F 0x00 0x00 0x11 0x00
Standard ID: 0x424       DLC: 8  Data: 0x00 0x00 0x00 0x00 0x00 0x00 0x00 0x00
Standard ID: 0x02F       DLC: 8  Data: 0x07 0x24 0x69 0x20 0x00 0x20 0xFF 0x3F
Standard ID: 0x3F0       DLC: 8  Data: 0x20 0x00 0x00 0x00 0x00 0x00 0x00 0x00
Standard ID: 0x42D       DLC: 8  Data: 0xFF 0xE4 0xD1 0x03 0x00 0x00 0xFF 0xFF
Standard ID: 0x137       DLC: 8  Data: 0xE4 0xFF 0x35 0x02 0x00 0x00 0x00 0x00
Standard ID: 0x411       DLC: 4  Data: 0x2D 0x07 0x00 0x04
Standard ID: 0x10D       DLC: 4  Data: 0x00 0x00 0x00 0x00
Standard ID: 0x419       DLC: 8  Data: 0xFE 0xFE 0xC4 0x00 0xC0 0xC2 0x00 0x00
Extended ID: 0x0CB00000  DLC: 8  Data: 0x00 0x80 0xFE 0xFB 0x01 0x00 0x00 0x00
Standard ID: 0x339       DLC: 8  Data: 0x33 0x00 0x8C 0x00 0xC8 0x00 0x00 0x00
Standard ID: 0x10D       DLC: 4  Data: 0x00 0x00 0x00 0x00
Standard ID: 0x02F       DLC: 8  Data: 0x96 0x22 0x69 0x20 0x00 0x20 0xFF 0x3F
Standard ID: 0x10D       DLC: 4  Data: 0x00 0x00 0x00 0x00
Standard ID: 0x404       DLC: 8  Data: 0x00 0x00 0x00 0x00 0x00 0x00 0x00 0x00
Standard ID: 0x377       DLC: 8  Data: 0xC0 0x03 0xFF 0xFF 0xFF 0xF3 0x3F 0x00
Extended ID: 0x0BC80000  DLC: 8  Data: 0xFD 0x0A 0x00 0x00 0x00 0x00 0x00 0x00
Standard ID: 0x4A6       DLC: 8  Data: 0xFF 0xFF 0xC2 0x30 0x00 0x00 0x00 0x00
Standard ID: 0x02F       DLC: 8  Data: 0x07 0x24 0x69 0x20 0x00 0x20 0xFF 0x3F
Standard ID: 0x10D       DLC: 4  Data: 0x00 0x00 0x00 0x00
Standard ID: 0x351       DLC: 8  Data: 0x10 0x80 0xFC 0x0F 0x50 0x15 0x11 0x00
Standard ID: 0x10D       DLC: 4  Data: 0x00 0x00 0x00 0x00
Standard ID: 0x02F       DLC: 8  Data: 0xC8 0x20 0x69 0x20 0x00 0x20 0xFF 0x3F
Standard ID: 0x10D       DLC: 4  Data: 0x00 0x00 0x00 0x00
Standard ID: 0x42D       DLC: 8  Data: 0xFF 0xE4 0x67 0x06 0x00 0x00 0xFF 0xFF
Standard ID: 0x137       DLC: 8  Data: 0xE4 0xFF 0x35 0x02 0x00 0x00 0x00 0x00
Standard ID: 0x02F       DLC: 8  Data: 0x11 0x2C 0x69 0x20 0x00 0x20 0xFF 0x3F
Standard ID: 0x484       DLC: 8  Data: 0x00 0x10 0x1F 0x0F 0x00 0x00 0x00 0x00
Standard ID: 0x419       DLC: 8  Data: 0xFE 0xFE 0xC4 0x00 0xC0 0xC2 0x00 0x00
Standard ID: 0x460       DLC: 8  Data: 0xFC 0xFF 0x1F 0x00 0x00 0xFF 0xFF 0x0F
Standard ID: 0x339       DLC: 8  Data: 0x33 0x00 0x8C 0x00 0xC8 0x00 0x00 0x00
Standard ID: 0x10D       DLC: 4  Data: 0x00 0x00 0x00 0x00
Standard ID: 0x02F       DLC: 8  Data: 0xDC 0x2E 0x69 0x20 0x00 0x20 0xFF 0x3F
Standard ID: 0x10D       DLC: 4  Data: 0x00 0x00 0x00 0x00
Standard ID: 0x404       DLC: 8  Data: 0x00 0x00 0x00 0x00 0x00 0x00 0x00 0x00
Standard ID: 0x137       DLC: 8  Data: 0xE4 0xFF 0x35 0x02 0x00 0x00 0x00 0x00
Standard ID: 0x02F       DLC: 8  Data: 0x1D 0x2A 0x68 0x20 0xFF 0x1F 0xFF 0x3F
Standard ID: 0x10D       DLC: 4  Data: 0x00 0x00 0x00 0x00
Standard ID: 0x02F       DLC: 8  Data: 0xC8 0x20 0x69 0x20 0x00 0x20 0xFF 0x3F
Standard ID: 0x10D       DLC: 4  Data: 0x00 0x00 0x00 0x00
Standard ID: 0x351       DLC: 8  Data: 0x10 0x80 0xFC 0x0F 0x00 0x00 0x11 0x00
Standard ID: 0x10D       DLC: 4  Data: 0x00 0x00 0x00 0x00
Standard ID: 0x02F       DLC: 8  Data: 0x11 0x2C 0x69 0x20 0x00 0x20 0xFF 0x3F
Standard ID: 0x10D       DLC: 4  Data: 0x00 0x00 0x00 0x00
Standard ID: 0x42D       DLC: 8  Data: 0xFF 0xE4 0xB6 0x09 0x00 0x00 0xFF 0xFF
Standard ID: 0x137       DLC: 8  Data: 0xE4 0xFF 0x35 0x02 0x00 0x00 0x00 0x00
Standard ID: 0x02F       DLC: 8  Data: 0x0A 0x28 0x69 0x20 0x00 0x20 0xFF 0x3F
Standard ID: 0x10D       DLC: 4  Data: 0x00 0x00 0x00 0x00
Standard ID: 0x419       DLC: 8  Data: 0xFE 0xFE 0xC4 0x00 0xC0 0xC2 0x00 0x00
Extended ID: 0x0CB00000  DLC: 8  Data: 0x00 0x80 0xFE 0xFB 0x01 0x00 0x00 0x00
Standard ID: 0x339       DLC: 8  Data: 0x33 0x00 0x8C 0x00 0xC8 0x00 0x00 0x00
Standard ID: 0x10D       DLC: 4  Data: 0x00 0x00 0x00 0x00
Standard ID: 0x02F       DLC: 8  Data: 0x80 0x2A 0x69 0x20 0x00 0x20 0xFF 0x3F
Standard ID: 0x10D       DLC: 4  Data: 0x00 0x00 0x00 0x00
Standard ID: 0x404       DLC: 8  Data: 0x00 0x00 0x00 0x00 0x00 0x00 0x00 0x00
Standard ID: 0x137       DLC: 8  Data: 0xE4 0xFF 0x35 0x02 0x00 0x00 0x00 0x00
Standard ID: 0x02F       DLC: 8  Data: 0xCA 0x26 0x69 0x20 0x00 0x20 0xFF 0x3F
Standard ID: 0x10D       DLC: 4  Data: 0x00 0x00 0x00 0x00
Standard ID: 0x02F       DLC: 8  Data: 0xBC 0x2C 0x69 0x20 0x01 0x20 0xFF 0x3F
Standard ID: 0x10D       DLC: 4  Data: 0x00 0x00 0x00 0x00
Standard ID: 0x351       DLC: 8  Data: 0x10 0x80 0xFC 0x0F 0x50 0x15 0x11 0x00
Standard ID: 0x353       DLC: 8  Data: 0x38 0x08 0x03 0xFC 0xE0 0xE0 0x11 0x00
Standard ID: 0x357       DLC: 8  Data: 0x70 0xFF 0x00 0xFF 0x00 0x31 0x00 0x00
Standard ID: 0x10D       DLC: 4  Data: 0x00 0x00 0x00 0x00
Standard ID: 0x42D       DLC: 8  Data: 0xFF 0xE4 0x32 0x0C 0x00 0x00 0xFF 0xFF
Standard ID: 0x137       DLC: 8  Data: 0xE4 0xFF 0x35 0x02 0x00 0x00 0x00 0x00
Extended ID: 0x0BC80000  DLC: 8  Data: 0xFE 0x0D 0x00 0x00 0x00 0x00 0x00 0x00
Standard ID: 0x46E       DLC: 8  Data: 0xFF 0xFF 0xFF 0xC0 0xFF 0xFF 0x0F 0x00
Standard ID: 0x419       DLC: 8  Data: 0xFE 0xFE 0xC4 0x00 0xC0 0xC2 0x00 0x00
Standard ID: 0x10D       DLC: 4  Data: 0x00 0x00 0x00 0x00
Standard ID: 0x339       DLC: 8  Data: 0x33 0x00 0x8C 0x00 0xC8 0x00 0x00 0x00
Standard ID: 0x10D       DLC: 4  Data: 0x00 0x00 0x00 0x00
Standard ID: 0x02F       DLC: 8  Data: 0x3E 0x26 0x68 0x20 0x00 0x20 0xFF 0x3F
Standard ID: 0x10D       DLC: 4  Data: 0x00 0x00 0x00 0x00
Standard ID: 0x404       DLC: 8  Data: 0x00 0x00 0x00 0x00 0x00 0x00 0x00 0x00
Standard ID: 0x137       DLC: 8  Data: 0xE4 0xFF 0x35 0x02 0x00 0x00 0x00 0x00
Standard ID: 0x02F       DLC: 8  Data: 0x96 0x22 0x69 0x20 0x00 0x20 0xFF 0x3F
Standard ID: 0x10D       DLC: 4  Data: 0x00 0x00 0x00 0x00
Standard ID: 0x02F       DLC: 8  Data: 0x0A 0x28 0x69 0x20 0x00 0x20 0xFF 0x3F
Standard ID: 0x10D       DLC: 4  Data: 0x00 0x00 0x00 0x00
Standard ID: 0x351       DLC: 8  Data: 0x10 0x80 0xFC 0x0F 0x00 0x00 0x11 0x00
Standard ID: 0x10D       DLC: 4  Data: 0x00 0x00 0x00 0x00
Standard ID: 0x3C2       DLC: 8  Data: 0x00 0x10 0x00 0x00 0x00 0x00 0x00 0x00
Standard ID: 0x10D       DLC: 4  Data: 0x56 0x00 0x00 0x00
Standard ID: 0x42D       DLC: 8  Data: 0xFF 0xE4 0x52 0x0F 0x00 0x00 0xFF 0xFF
Standard ID: 0x137       DLC: 8  Data: 0xE4 0xFF 0x35 0x02 0x00 0x00 0x00 0x00
Standard ID: 0x02F       DLC: 8  Data: 0x3C 0x20 0x68 0x20 0x00 0x20 0xFF 0x3F
Standard ID: 0x10D       DLC: 4  Data: 0x9E 0x00 0x00 0x00
Standard ID: 0x419       DLC: 8  Data: 0xFE 0xFE 0xC4 0x00 0xC0 0xC2 0x00 0x00
Standard ID: 0x10D       DLC: 4  Data: 0xB5 0x00 0x00 0x00
Standard ID: 0x1AB       DLC: 8  Data: 0x20 0xB9 0x08 0x00 0x00 0x78 0x2A 0x5B
Standard ID: 0x10D       DLC: 4  Data: 0xD4 0x00 0x00 0x00
Standard ID: 0x1AB       DLC: 8  Data: 0x28 0xFE 0x08 0x00 0x00 0x05 0x10 0xE0
Standard ID: 0x10D       DLC: 4  Data: 0x05 0x01 0x00 0x00
Standard ID: 0x404       DLC: 8  Data: 0x00 0x00 0x00 0x00 0x00 0x00 0x00 0x00
Standard ID: 0x137       DLC: 8  Data: 0xE4 0xFF 0x35 0x02 0x00 0x00 0x00 0x00
Standard ID: 0x02F       DLC: 8  Data: 0x71 0x2E 0x69 0x20 0x01 0x20 0xFF 0x3F
Standard ID: 0x2E0       DLC: 8  Data: 0x9A 0x06 0x00 0x00 0x00 0x00 0x00 0x00
Standard ID: 0x02F       DLC: 8  Data: 0x07 0x24 0x69 0x20 0x00 0x20 0xFF 0x3F
Standard ID: 0x499       DLC: 8  Data: 0x00 0x00 0x64 0x60 0x61 0x0A 0x00 0x00
Standard ID: 0x351       DLC: 8  Data: 0x10 0x80 0xFC 0x0F 0x50 0x15 0x11 0x00
Standard ID: 0x424       DLC: 8  Data: 0x00 0x00 0x00 0x00 0x00 0x00 0x00 0x00
Standard ID: 0x02F       DLC: 8  Data: 0xC8 0x20 0x69 0x20 0x00 0x20 0xFF 0x3F
Standard ID: 0x3F0       DLC: 8  Data: 0x20 0x00 0x00 0x00 0x00 0x00 0x00 0x00
Standard ID: 0x42D       DLC: 8  Data: 0xFF 0x04 0xD1 0x03 0x00 0x00 0xFF 0xFF
Standard ID: 0x137       DLC: 8  Data: 0xE4 0xFF 0x35 0x02 0x00 0x00 0x00 0x00
Standard ID: 0x411       DLC: 4  Data: 0x7F 0x06 0x00 0x04
Standard ID: 0x10D       DLC: 4  Data: 0x47 0x03 0x00 0x00
Standard ID: 0x419       DLC: 8  Data: 0xFE 0xFE 0xC4 0x00 0xC0 0xC2 0x00 0x00
Standard ID: 0x10D       DLC: 4  Data: 0x3F 0x03 0x00 0x00
Standard ID: 0x339       DLC: 8  Data: 0x33 0x00 0x8C 0x00 0xC8 0x00 0x00 0x00
Standard ID: 0x10D       DLC: 4  Data: 0x3C 0x03 0x00 0x00
Standard ID: 0x02F       DLC: 8  Data: 0xDC 0x2E 0x69 0x20 0x00 0x20 0xFF 0x3F
Standard ID: 0x10D       DLC: 4  Data: 0x43 0x03 0x00 0x00
Standard ID: 0x404       DLC: 8  Data: 0x00 0x00 0x00 0x00 0x00 0x00 0x00 0x00
Standard ID: 0x137       DLC: 8  Data: 0xE4 0xFF 0x35 0x02 0x00 0x00 0x00 0x00
Extended ID: 0x0BC80000  DLC: 8  Data: 0xC4 0x00 0x00 0x00 0x00 0x00 0x00 0x00
Standard ID: 0x4A6       DLC: 8  Data: 0xFF 0xFF 0xC2 0x30 0x00 0x00 0x00 0x00
Standard ID: 0x02F       DLC: 8  Data: 0x65 0x20 0x69 0x20 0x01 0x20 0xFF 0x3F
Standard ID: 0x10D       DLC: 4  Data: 0x40 0x03 0x00 0x00
Standard ID: 0x351       DLC: 8  Data: 0x10 0x80 0xFC 0x0F 0x00 0x00 0x11 0x00
Standard ID: 0x10D       DLC: 4  Data: 0x38 0x03 0x00 0x00
Standard ID: 0x341       DLC: 8  Data: 0x00 0x00 0x0D 0x23 0x0C 0x79 0x00 0x7F
Standard ID: 0x10D       DLC: 4  Data: 0x4B 0x03 0x00 0x00
Standard ID: 0x42D       DLC: 8  Data: 0xFF 0x04 0x67 0x06 0x00 0x00 0xFF 0xFF
Standard ID: 0x137       DLC: 8  Data: 0xE4 0xFF 0x35 0x02 0x00 0x00 0x00 0x00
Standard ID: 0x02F       DLC: 8  Data: 0xFE 0x28 0x68 0x20 0x00 0x20 0xFF 0x3F
Standard ID: 0x484       DLC: 8  Data: 0x00 0x10 0x1F 0x0F 0x00 0x00 0x00 0x00
Standard ID: 0x419       DLC: 8  Data: 0xFE 0xFE 0xC4 0x00 0xC0 0xC2 0x00 0x00
Standard ID: 0x460       DLC: 8  Data: 0xFC 0xFF 0x1F 0x00 0x00 0xFF 0xFF 0x0F
Standard ID: 0x339       DLC: 8  Data: 0x33 0x00 0x8C 0x00 0xC8 0x00 0x00 0x00
Standard ID: 0x10D       DLC: 4  Data: 0x38 0x03 0x00 0x00
Standard ID: 0x02F       DLC: 8  Data: 0x80 0x2A 0x69 0x20 0x00 0x20 0xFF 0x3F
Standard ID: 0x10D       DLC: 4  Data: 0x2E 0x03 0x00 0x00
Standard ID: 0x404       DLC: 8  Data: 0x00 0x00 0x00 0x00 0x00 0x00 0x00 0x00
Standard ID: 0x137       DLC: 8  Data: 0xE4 0xFF 0x35 0x02 0x00 0x00 0x00 0x00
Standard ID: 0x02F       DLC: 8  Data: 0x3E 0x26 0x68 0x20 0x00 0x20 0xFF 0x3F
Standard ID: 0x10D       DLC: 4  Data: 0x30 0x03 0x00 0x00
Standard ID: 0x02F       DLC: 8  Data: 0x11 0x2C 0x69 0x20 0x00 0x20 0xFF 0x3F
Standard ID: 0x10D       DLC: 4  Data: 0x27 0x03 0x00 0x00
Standard ID: 0x351       DLC: 8  Data: 0x10 0x80 0xFC 0x0F 0x50 0x15 0x11 0x00
Standard ID: 0x10D       DLC: 4  Data: 0x26 0x03 0x00 0x00
Standard ID: 0x02F       DLC: 8  Data: 0x0A 0x28 0x69 0x20 0x00 0x20 0xFF 0x3F
Standard ID: 0x10D       DLC: 4  Data: 0x1C 0x03 0x00 0x00
Standard ID: 0x42D       DLC: 8  Data: 0xFF 0x04 0xB6 0x09 0x00 0x00 0xFF 0xFF
Standard ID: 0x137       DLC: 8  Data: 0xE4 0xFF 0x35 0x02 0x00 0x00 0x00 0x00
Standard ID: 0x02F       DLC: 8  Data: 0xF3 0x24 0x68 0x20 0x00 0x20 0xFF 0x3F
Standard ID: 0x10D       DLC: 4  Data: 0x1D 0x03 0x00 0x00
Standard ID: 0x419       DLC: 8  Data: 0xFE 0xFE 0xC4 0x00 0xC0 0xC2 0x00 0x00
Standard ID: 0x10D       DLC: 4  Data: 0x16 0x03 0x00 0x00
Standard ID: 0x339       DLC: 8  Data: 0x33 0x00 0x8C 0x00 0xC8 0x00 0x00 0x00
Standard ID: 0x10D       DLC: 4  Data: 0x13 0x03 0x00 0x00
Standard ID: 0x02F       DLC: 8  Data: 0x57 0x26 0x68 0x20 0xFF 0x1F 0xFF 0x3F
Standard ID: 0x10D       DLC: 4  Data: 0x09 0x03 0x00 0x00
Standard ID: 0x404       DLC: 8  Data: 0x00 0x00 0x00 0x00 0x00 0x00 0x00 0x00
Standard ID: 0x137       DLC: 8  Data: 0xE4 0xFF 0x35 0x02 0x00 0x00 0x00 0x00
Standard ID: 0x02F       DLC: 8  Data: 0x96 0x22 0x69 0x20 0x00 0x20 0xFF 0x3F
Standard ID: 0x10D       DLC: 4  Data: 0xF8 0x02 0x00 0x00
Standard ID: 0x02F       DLC: 8  Data: 0x0A 0x28 0x69 0x20 0x00 0x20 0xFF 0x3F
Standard ID: 0x10D       DLC: 4  Data: 0xEA 0x02 0x00 0x00
Standard ID: 0x351       DLC: 8  Data: 0x10 0x80 0xFC 0x0F 0x00 0x00 0x11 0x00
Standard ID: 0x353       DLC: 8  Data: 0x38 0x08 0x03 0xFC 0xE0 0xE0 0x11 0x00
Standard ID: 0x357       DLC: 8  Data: 0x70 0xFF 0x00 0xFF 0x00 0x31 0x00 0x00
Standard ID: 0x10D       DLC: 4  Data: 0xE8 0x02 0x00 0x00
Standard ID: 0x42D       DLC: 8  Data: 0xFF 0x04 0x32 0x0C 0x00 0x00 0xFF 0xFF
Standard ID: 0x137       DLC: 8  Data: 0xE4 0xFF 0x35 0x02 0x00 0x00 0x00 0x00
Extended ID: 0x0BC80000  DLC: 8  Data: 0xE9 0x03 0x00 0x00 0x00 0x00 0x00 0x00
Standard ID: 0x47D       DLC: 6  Data: 0x1F 0x08 0xB0 0x09 0x28 0x08
Standard ID: 0x419       DLC: 8  Data: 0xFE 0xFE 0xC4 0x00 0xC0 0xC2 0x00 0x00
Standard ID: 0x499       DLC: 8  Data: 0x00 0x00 0x64 0x60 0x33 0x0F 0x00 0x00
Standard ID: 0x339       DLC: 8  Data: 0x33 0x00 0x8C 0x00 0xC8 0x00 0x00 0x00
Standard ID: 0x10D       DLC: 4  Data: 0xE6 0x02 0x00 0x00
Standard ID: 0x02F       DLC: 8  Data: 0x96 0x22 0x69 0x20 0x00 0x20 0xFF 0x3F
Standard ID: 0x10D       DLC: 4  Data: 0xF0 0x02 0x00 0x00
Standard ID: 0x404       DLC: 8  Data: 0x00 0x00 0x00 0x00 0x00 0x00 0x00 0x00
Standard ID: 0x137       DLC: 8  Data: 0xE4 0xFF 0x35 0x02 0x00 0x00 0x00 0x00
Standard ID: 0x02F       DLC: 8  Data: 0x28 0x2E 0x68 0x20 0x00 0x20 0xFF 0x3F
Standard ID: 0x10D       DLC: 4  Data: 0xF6 0x02 0x00 0x00
Standard ID: 0x02F       DLC: 8  Data: 0xF3 0x24 0x68 0x20 0x00 0x20 0xFF 0x3F
Standard ID: 0x499       DLC: 8  Data: 0x00 0x00 0x64 0x60 0x16 0x02 0x00 0x00
Standard ID: 0x351       DLC: 8  Data: 0x10 0x80 0xFC 0x0F 0x50 0x15 0x11 0x00
Standard ID: 0x10D       DLC: 4  Data: 0xEF 0x02 0x00 0x00
Standard ID: 0x02F       DLC: 8  Data: 0xC8 0x20 0x69 0x20 0x00 0x20 0xFF 0x3F
Standard ID: 0x10D       DLC: 4  Data: 0xF2 0x02 0x00 0x00
Standard ID: 0x42D       DLC: 8  Data: 0xFF 0x04 0x52 0x0F 0x00 0x00 0xFF 0xFF
Standard ID: 0x137       DLC: 8  Data: 0xE4 0xFF 0x35 0x02 0x00 0x00 0x00 0x00
Standard ID: 0x02F       DLC: 8  Data: 0x11 0x2C 0x69 0x20 0x00 0x20 0xFF 0x3F
Standard ID: 0x10D       DLC: 4  Data: 0xEC 0x02 0x00 0x00
Standard ID: 0x419       DLC: 8  Data: 0xFE 0xFE 0xC4 0x00 0xC0 0xC2 0x00 0x00
Standard ID: 0x10D       DLC: 4  Data: 0xF2 0x02 0x00 0x00
Standard ID: 0x1AB       DLC: 8  Data: 0x20 0x5C 0x0B 0x00 0x00 0x78 0x2A 0x5E
Standard ID: 0x10D       DLC: 4  Data: 0xEF 0x02 0x00 0x00
Standard ID: 0x1AB       DLC: 8  Data: 0x28 0xED 0x0B 0x00 0x00 0x05 0x5F 0x00
Standard ID: 0x10D       DLC: 4  Data: 0xFB 0x02 0x00 0x00
Standard ID: 0x404       DLC: 8  Data: 0x00 0x00 0x00 0x00 0x00 0x00 0x00 0x00
Standard ID: 0x137       DLC: 8  Data: 0xE4 0xFF 0x35 0x02 0x00 0x00 0x00 0x00
Standard ID: 0x02F       DLC: 8  Data: 0x80 0x2A 0x69 0x20 0x00 0x20 0xFF 0x3F
Standard ID: 0x10D       DLC: 4  Data: 0xFC 0x02 0x00 0x00
Standard ID: 0x02F       DLC: 8  Data: 0xC8 0x20 0x69 0x20 0x00 0x20 0xFF 0x3F
Standard ID: 0x499       DLC: 8  Data: 0x00 0x00 0x64 0x60 0xE3 0x08 0x00 0x00
Standard ID: 0x351       DLC: 8  Data: 0x10 0x80 0xFC 0x0F 0x00 0x00 0x11 0x00
Standard ID: 0x424       DLC: 8  Data: 0x00 0x00 0x00 0x00 0x00 0x00 0x00 0x00
Standard ID: 0x02F       DLC: 8  Data: 0x11 0x2C 0x69 0x20 0x00 0x20 0xFF 0x3F
Standard ID: 0x10D       DLC: 4  Data: 0xF9 0x02 0x00 0x00
Standard ID: 0x42D       DLC: 8  Data: 0xFF 0x04 0x17 0x02 0x00 0x00 0xFF 0xFF
Standard ID: 0x137       DLC: 8  Data: 0xE4 0xFF 0x35 0x02 0x00 0x00 0x00 0x00
Standard ID: 0x02F       DLC: 8  Data: 0x0A 0x28 0x69 0x20 0x00 0x20 0xFF 0x3F
Standard ID: 0x10D       DLC: 4  Data: 0x00 0x03 0x00 0x00
Standard ID: 0x419       DLC: 8  Data: 0xFE 0xFE 0xC4 0x00 0xC0 0xC2 0x00 0x00
Standard ID: 0x10D       DLC: 4  Data: 0x08 0x03 0x00 0x00
Standard ID: 0x339       DLC: 8  Data: 0x33 0x00 0x8C 0x00 0xC8 0x00 0x00 0x00
Standard ID: 0x10D       DLC: 4  Data: 0x04 0x03 0x00 0x00
Standard ID: 0x02F       DLC: 8  Data: 0x80 0x2A 0x69 0x20 0x00 0x20 0xFF 0x3F
Standard ID: 0x10D       DLC: 4  Data: 0x03 0x03 0x00 0x00
Standard ID: 0x404       DLC: 8  Data: 0x00 0x00 0x00 0x00 0x00 0x00 0x00 0x00
Standard ID: 0x137       DLC: 8  Data: 0xE4 0xFF 0x35 0x02 0x00 0x00 0x00 0x00
Extended ID: 0x0BC80000  DLC: 8  Data: 0x01 0x06 0x00 0x00 0x00 0x00 0x00 0x00
Standard ID: 0x4A6       DLC: 8  Data: 0xFF 0xFF 0xC2 0x30 0x00 0x00 0x00 0x00
Standard ID: 0x02F       DLC: 8  Data: 0x11 0x2C 0x69 0x20 0x00 0x20 0xFF 0x3F
Standard ID: 0x10D       DLC: 4  Data: 0xF3 0x02 0x00 0x00
Standard ID: 0x351       DLC: 8  Data: 0x10 0x80 0xFC 0x0F 0x50 0x15 0x11 0x00
Standard ID: 0x10D       DLC: 4  Data: 0xEF 0x02 0x00 0x00
Standard ID: 0x02F       DLC: 8  Data: 0x0A 0x28 0x69 0x20 0x00 0x20 0xFF 0x3F
Standard ID: 0x10D       DLC: 4  Data: 0xEF 0x02 0x00 0x00
Standard ID: 0x42D       DLC: 8  Data: 0xFF 0x04 0xE4 0x05 0x00 0x00 0xFF 0xFF
Standard ID: 0x137       DLC: 8  Data: 0xE4 0xFF 0x35 0x02 0x00 0x00 0x00 0x00
Standard ID: 0x02F       DLC: 8  Data: 0x07 0x24 0x69 0x20 0x00 0x20 0xFF 0x3F
Standard ID: 0x484       DLC: 8  Data: 0x00 0x10 0x1F 0x0F 0x00 0x00 0x00 0x00
Standard ID: 0x419       DLC: 8  Data: 0xFE 0xFE 0xC4 0x00 0xC0 0xC2 0x00 0x00
Standard ID: 0x460       DLC: 8  Data: 0xFC 0xFF 0x1F 0x00 0x00 0xFF 0xFF 0x0F
Standard ID: 0x339       DLC: 8  Data: 0x33 0x00 0x8C 0x00 0xC8 0x00 0x00 0x00
Standard ID: 0x10D       DLC: 4  Data: 0xF1 0x02 0x00 0x00
Standard ID: 0x02F       DLC: 8  Data: 0x3E 0x26 0x68 0x20 0x00 0x20 0xFF 0x3F
Standard ID: 0x10D       DLC: 4  Data: 0xE5 0x02 0x00 0x00
Standard ID: 0x404       DLC: 8  Data: 0x00 0x00 0x00 0x00 0x00 0x00 0x00 0x00
Standard ID: 0x137       DLC: 8  Data: 0xE4 0xFF 0x35 0x02 0x00 0x00 0x00 0x00
Standard ID: 0x02F       DLC: 8  Data: 0x96 0x22 0x69 0x20 0x00 0x20 0xFF 0x3F
Standard ID: 0x10D       DLC: 4  Data: 0xDC 0x02 0x00 0x00
Standard ID: 0x02F       DLC: 8  Data: 0x0A 0x28 0x69 0x20 0x00 0x20 0xFF 0x3F
Standard ID: 0x10D       DLC: 4  Data: 0xDC 0x02 0x00 0x00
Standard ID: 0x351       DLC: 8  Data: 0x10 0x80 0xFC 0x0F 0x00 0x00 0x11 0x00
Standard ID: 0x10D       DLC: 4  Data: 0xE4 0x02 0x00 0x00
Standard ID: 0x02F       DLC: 8  Data: 0x07 0x24 0x69 0x20 0x00 0x20 0xFF 0x3F
Standard ID: 0x10D       DLC: 4  Data: 0xE9 0x02 0x00 0x00
Standard ID: 0x42D       DLC: 8  Data: 0xFF 0x04 0x96 0x08 0x00 0x00 0xFF 0xFF
Standard ID: 0x137       DLC: 8  Data: 0xE4 0xFF 0x35 0x02 0x00 0x00 0x00 0x00
Standard ID: 0x02F       DLC: 8  Data: 0xC8 0x20 0x69 0x20 0x00 0x20 0xFF 0x3F
Standard ID: 0x10D       DLC: 4  Data: 0xEC 0x02 0x00 0x00
Standard ID: 0x419       DLC: 8  Data: 0xFE 0xFE 0xC4 0x00 0xC0 0xC2 0x00 0x00
Standard ID: 0x10D       DLC: 4  Data: 0xE4 0x02 0x00 0x00
Standard ID: 0x339       DLC: 8  Data: 0x33 0x00 0x8B 0x00 0xC8 0x00 0x00 0x00
Standard ID: 0x10D       DLC: 4  Data: 0xE5 0x02 0x00 0x00
Standard ID: 0x02F       DLC: 8  Data: 0x96 0x22 0x69 0x20 0x00 0x20 0xFF 0x3F
Standard ID: 0x10D       DLC: 4  Data: 0xF8 0x02 0x00 0x00
Standard ID: 0x404       DLC: 8  Data: 0x00 0x00 0x00 0x00 0x00 0x00 0x00 0x00
Standard ID: 0x137       DLC: 8  Data: 0xE4 0xFF 0x35 0x02 0x00 0x00 0x00 0x00
Standard ID: 0x02F       DLC: 8  Data: 0xDC 0x2E 0x69 0x20 0x00 0x20 0xFF 0x3F
Standard ID: 0x10D       DLC: 4  Data: 0x05 0x03 0x00 0x00
Standard ID: 0x02F       DLC: 8  Data: 0x07 0x24 0x69 0x20 0x00 0x20 0xFF 0x3F
Standard ID: 0x10D       DLC: 4  Data: 0xFC 0x02 0x00 0x00
Standard ID: 0x351       DLC: 8  Data: 0x10 0x80 0xFC 0x0F 0x50 0x15 0x11 0x00
Standard ID: 0x353       DLC: 8  Data: 0x38 0x08 0x03 0xFC 0xE0 0xE0 0x11 0x00
Standard ID: 0x357       DLC: 8  Data: 0x70 0xFF 0x00 0xFF 0x00 0x31 0x00 0x00
Standard ID: 0x10D       DLC: 4  Data: 0xF4 0x02 0x00 0x00
Standard ID: 0x42D       DLC: 8  Data: 0xFF 0x04 0x3B 0x0B 0x00 0x00 0xFF 0xFF
Standard ID: 0x137       DLC: 8  Data: 0xE4 0xFF 0x35 0x02 0x00 0x00 0x00 0x00
Extended ID: 0x0BC80000  DLC: 8  Data: 0x77 0x09 0x00 0x00 0x00 0x00 0x00 0x00
Standard ID: 0x46E       DLC: 8  Data: 0xFF 0xFF 0xFF 0xC0 0xFF 0xFF 0x0F 0x00
Standard ID: 0x419       DLC: 8  Data: 0xFE 0xFE 0xC4 0x00 0xC0 0xC2 0x00 0x00
Standard ID: 0x499       DLC: 8  Data: 0x00 0x00 0x64 0x60 0x52 0x0D 0x00 0x00
Standard ID: 0x339       DLC: 8  Data: 0x33 0x00 0x8B 0x00 0xC8 0x00 0x00 0x00
Standard ID: 0x10D       DLC: 4  Data: 0xE8 0x02 0x00 0x00
Standard ID: 0x02F       DLC: 8  Data: 0xDC 0x2E 0x69 0x20 0x00 0x20 0xFF 0x3F
Standard ID: 0x10D       DLC: 4  Data: 0xF8 0x02 0x00 0x00
Standard ID: 0x404       DLC: 8  Data: 0x00 0x00 0x00 0x00 0x00 0x00 0x00 0x00
Standard ID: 0x137       DLC: 8  Data: 0xE4 0xFF 0x35 0x02 0x00 0x00 0x00 0x00
Standard ID: 0x02F       DLC: 8  Data: 0x80 0x2A 0x69 0x20 0x00 0x20 0xFF 0x3F
Standard ID: 0x10D       DLC: 4  Data: 0xF6 0x02 0x00 0x00
Standard ID: 0x02F       DLC: 8  Data: 0xC8 0x20 0x69 0x20 0x00 0x20 0xFF 0x3F
Standard ID: 0x10D       DLC: 4  Data: 0xF8 0x02 0x00 0x00
Standard ID: 0x351       DLC: 8  Data: 0x10 0x80 0xFC 0x0F 0x00 0x00 0x11 0x00
Standard ID: 0x10D       DLC: 4  Data: 0xF6 0x02 0x00 0x00
Standard ID: 0x02F       DLC: 8  Data: 0x8C 0x2C 0x68 0x20 0xFF 0x1F 0xFF 0x3F
Standard ID: 0x10D       DLC: 4  Data: 0xF5 0x02 0x00 0x00
Standard ID: 0x42D       DLC: 8  Data: 0xFF 0x04 0x91 0x0E 0x00 0x00 0xFF 0xFF
Standard ID: 0x137       DLC: 8  Data: 0xE4 0xFF 0x35 0x02 0x00 0x00 0x00 0x00
Standard ID: 0x341       DLC: 8  Data: 0x00 0x00 0x0D 0xC8 0x10 0x79 0x35 0x7F
Standard ID: 0x10D       DLC: 4  Data: 0xE5 0x02 0x00 0x00
Standard ID: 0x419       DLC: 8  Data: 0xFE 0xFE 0xC4 0x00 0xC0 0xC2 0x00 0x00
Standard ID: 0x10D       DLC: 4  Data: 0xEE 0x02 0x00 0x00
Standard ID: 0x339       DLC: 8  Data: 0x33 0x00 0x8B 0x00 0xC8 0x00 0x00 0x00
Standard ID: 0x10D       DLC: 4  Data: 0xEE 0x02 0x00 0x00
Standard ID: 0x1AB       DLC: 8  Data: 0x28 0xE9 0x0E 0x00 0x00 0x04 0x61 0x18
Standard ID: 0x10D       DLC: 4  Data: 0xEC 0x02 0x00 0x00
Standard ID: 0x404       DLC: 8  Data: 0x00 0x00 0x00 0x00 0x00 0x00 0x00 0x00
Standard ID: 0x137       DLC: 8  Data: 0xE4 0xFF 0x35 0x02 0x00 0x00 0x00 0x00
Standard ID: 0x02F       DLC: 8  Data: 0xCA 0x26 0x69 0x20 0x00 0x20 0xFF 0x3F
Standard ID: 0x2E0       DLC: 8  Data: 0xA6 0x02 0x00 0x00 0x00 0x00 0x00 0x00
Standard ID: 0x02F       DLC: 8  Data: 0x11 0x2C 0x69 0x20 0x00 0x20 0xFF 0x3F
Standard ID: 0x499       DLC: 8  Data: 0x00 0x00 0x64 0x60 0xA7 0x06 0x00 0x00
Standard ID: 0x351       DLC: 8  Data: 0x10 0x80 0xFC 0x0F 0x50 0x15 0x11 0x00
Standard ID: 0x424       DLC: 8  Data: 0x00 0x00 0x00 0x00 0x00 0x00 0x00 0x00
Standard ID: 0x02F       DLC: 8  Data: 0x0A 0x28 0x69 0x20 0x00 0x20 0xFF 0x3F
Standard ID: 0x10D       DLC: 4  Data: 0xEF 0x02 0x00 0x00
Standard ID: 0x42D       DLC: 8  Data: 0xFF 0x04 0x72 0x01 0x00 0x00 0xFF 0xFF
Standard ID: 0x137       DLC: 8  Data: 0xE4 0xFF 0x35 0x02 0x00 0x00 0x00 0x00
Standard ID: 0x02F       DLC: 8  Data: 0x07 0x24 0x69 0x20 0x00 0x20 0xFF 0x3F
Standard ID: 0x10D       DLC: 4  Data: 0xEF 0x02 0x00 0x00
Standard ID: 0x419       DLC: 8  Data: 0xFE 0xFE 0xC4 0x00 0xC0 0xC2 0x00 0x00
Standard ID: 0x10D       DLC: 4  Data: 0xEF 0x02 0x00 0x00
Standard ID: 0x339       DLC: 8  Data: 0x33 0x00 0x8B 0x00 0xC8 0x00 0x00 0x00
Standard ID: 0x10D       DLC: 4  Data: 0xF5 0x02 0x00 0x00
Standard ID: 0x02F       DLC: 8  Data: 0xCA 0x26 0x69 0x20 0x00 0x20 0xFF 0x3F
Standard ID: 0x10D       DLC: 4  Data: 0xEE 0x02 0x00 0x00
Standard ID: 0x404       DLC: 8  Data: 0x00 0x00 0x00 0x00 0x00 0x00 0x00 0x00
Standard ID: 0x137       DLC: 8  Data: 0xE4 0xFF 0x35 0x02 0x00 0x00 0x00 0x00
Extended ID: 0x0BC80000  DLC: 8  Data: 0x5E 0x0C 0x00 0x00 0x00 0x00 0x00 0x00
Standard ID: 0x2E0       DLC: 8  Data: 0xB2 0x08 0x00 0x00 0x00 0x00 0x00 0x00
Standard ID: 0x02F       DLC: 8  Data: 0xFE 0x28 0x68 0x20 0x00 0x20 0xFF 0x3F
Standard ID: 0x10D       DLC: 4  Data: 0xE5 0x02 0x00 0x00
Standard ID: 0x351       DLC: 8  Data: 0x10 0x80 0xFC 0x0F 0x00 0x00 0x11 0x00
Standard ID: 0x10D       DLC: 4  Data: 0xF0 0x02 0x00 0x00
Standard ID: 0x02F       DLC: 8  Data: 0x07 0x24 0x69 0x20 0x00 0x20 0xFF 0x3F
Standard ID: 0x10D       DLC: 4  Data: 0x02 0x03 0x00 0x00
Standard ID: 0x42D       DLC: 8  Data: 0xFF 0x04 0xC4 0x04 0x00 0x00 0xFF 0xFF
Standard ID: 0x137       DLC: 8  Data: 0xE4 0xFF 0x35 0x02 0x00 0x00 0x00 0x00
Standard ID: 0x02F       DLC: 8  Data: 0x55 0x20 0x68 0x20 0xFF 0x1F 0xFF 0x3F
Standard ID: 0x484       DLC: 8  Data: 0x00 0x10 0x1F 0x0F 0x00 0x00 0x00 0x00
Standard ID: 0x419       DLC: 8  Data: 0xFE 0xFE 0xC4 0x00 0xC0 0xC2 0x00 0x00
Standard ID: 0x10D       DLC: 4  Data: 0x05 0x03 0x00 0x00
Standard ID: 0x339       DLC: 8  Data: 0x33 0x00 0x8B 0x00 0xC8 0x00 0x00 0x00
Standard ID: 0x10D       DLC: 4  Data: 0x07 0x03 0x00 0x00
Standard ID: 0x02F       DLC: 8  Data: 0x96 0x22 0x69 0x20 0x00 0x20 0xFF 0x3F
Standard ID: 0x10D       DLC: 4  Data: 0x07 0x03 0x00 0x00
Standard ID: 0x404       DLC: 8  Data: 0x00 0x00 0x00 0x00 0x00 0x00 0x00 0x00
Standard ID: 0x137       DLC: 8  Data: 0xE4 0xFF 0x35 0x02 0x00 0x00 0x00 0x00
Standard ID: 0x02F       DLC: 8  Data: 0x28 0x2E 0x68 0x20 0x00 0x20 0xFF 0x3F
Standard ID: 0x10D       DLC: 4  Data: 0xFE 0x02 0x00 0x00
Standard ID: 0x02F       DLC: 8  Data: 0x07 0x24 0x69 0x20 0x00 0x20 0xFF 0x3F
Standard ID: 0x10D       DLC: 4  Data: 0xF1 0x02 0x00 0x00
Standard ID: 0x351       DLC: 8  Data: 0x10 0x80 0xFC 0x0F 0x50 0x15 0x11 0x00
Standard ID: 0x10D       DLC: 4  Data: 0xED 0x02 0x00 0x00
Standard ID: 0x02F       DLC: 8  Data: 0xC8 0x20 0x69 0x20 0x00 0x20 0xFF 0x3F
Standard ID: 0x10D       DLC: 4  Data: 0xE8 0x02 0x00 0x00
Standard ID: 0x42D       DLC: 8  Data: 0xFF 0x04 0xA4 0x07 0x00 0x00 0xFF 0xFF
Standard ID: 0x137       DLC: 8  Data: 0xE4 0xFF 0x35 0x02 0x00 0x00 0x00 0x00
Standard ID: 0x02F       DLC: 8  Data: 0x11 0x2C 0x69 0x20 0x00 0x20 0xFF 0x3F
Standard ID: 0x10D       DLC: 4  Data: 0xF3 0x02 0x00 0x00
Standard ID: 0x419       DLC: 8  Data: 0xFE 0xFE 0xC4 0x00 0xC0 0xC2 0x00 0x00
Standard ID: 0x10D       DLC: 4  Data: 0xF8 0x02 0x00 0x00
Standard ID: 0x339       DLC: 8  Data: 0x33 0x00 0x8B 0x00 0xC8 0x00 0x00 0x00
Standard ID: 0x10D       DLC: 4  Data: 0xF0 0x02 0x00 0x00
Standard ID: 0x02F       DLC: 8  Data: 0x71 0x2E 0x69 0x20 0x01 0x20 0xFF 0x3F
Standard ID: 0x10D       DLC: 4  Data: 0xF2 0x02 0x00 0x00
Standard ID: 0x404       DLC: 8  Data: 0x00 0x00 0x00 0x00 0x00 0x00 0x00 0x00
Standard ID: 0x137       DLC: 8  Data: 0xE4 0xFF 0x35 0x02 0x00 0x00 0x00 0x00
Standard ID: 0x02F       DLC: 8  Data: 0x1D 0x2A 0x68 0x20 0xFF 0x1F 0xFF 0x3F
Standard ID: 0x10D       DLC: 4  Data: 0xF6 0x02 0x00 0x00
Standard ID: 0x02F       DLC: 8  Data: 0xC8 0x20 0x69 0x20 0x00 0x20 0xFF 0x3F
Standard ID: 0x10D       DLC: 4  Data: 0xF7 0x02 0x00 0x00
Standard ID: 0x351       DLC: 8  Data: 0x10 0x80 0xFC 0x0F 0x00 0x00 0x11 0x00
Standard ID: 0x10D       DLC: 4  Data: 0xF2 0x02 0x00 0x00
Standard ID: 0x342       DLC: 8  Data: 0xC5 0x07 0x01 0x00 0x00 0x00 0x00 0x00
Standard ID: 0x10D       DLC: 4  Data: 0xEE 0x02 0x00 0x00
Standard ID: 0x42D       DLC: 8  Data: 0xFF 0x04 0x35 0x0A 0x00 0x00 0xFF 0xFF
Standard ID: 0x137       DLC: 8  Data: 0xE4 0xFF 0x35 0x02 0x00 0x00 0x00 0x00
Extended ID: 0x0BC80000  DLC: 8  Data: 0x2D 0x0F 0x00 0x00 0x00 0x00 0x00 0x00
Standard ID: 0x46E       DLC: 8  Data: 0xFF 0xFF 0xFF 0xC0 0xFF 0xFF 0x0F 0x00
Standard ID: 0x419       DLC: 8  Data: 0xFE 0xFE 0xC4 0x00 0xC0 0xC2 0x00 0x00
Standard ID: 0x499       DLC: 8  Data: 0x00 0x00 0x64 0x60 0xA4 0x0B 0x00 0x00
Standard ID: 0x339       DLC: 8  Data: 0x33 0x00 0x8B 0x00 0xC8 0x00 0x00 0x00
Standard ID: 0x10D       DLC: 4  Data: 0xF0 0x02 0x00 0x00
Standard ID: 0x02F       DLC: 8  Data: 0x80 0x2A 0x69 0x20 0x00 0x20 0xFF 0x3F
Standard ID: 0x10D       DLC: 4  Data: 0xEC 0x02 0x00 0x00
Standard ID: 0x404       DLC: 8  Data: 0x00 0x00 0x00 0x00 0x00 0x00 0x00 0x00
Standard ID: 0x137       DLC: 8  Data: 0xE4 0xFF 0x35 0x02 0x00 0x00 0x00 0x00
Standard ID: 0x02F       DLC: 8  Data: 0xCA 0x26 0x69 0x20 0x00 0x20 0xFF 0x3F
Standard ID: 0x10D       DLC: 4  Data: 0xF0 0x02 0x00 0x00
Standard ID: 0x02F       DLC: 8  Data: 0x11 0x2C 0x69 0x20 0x00 0x20 0xFF 0x3F
Standard ID: 0x499       DLC: 8  Data: 0x00 0x00 0x64 0x60 0x4A 0x0E 0x00 0x00
Standard ID: 0x351       DLC: 8  Data: 0x10 0x80 0xFC 0x0F 0x50 0x15 0x11 0x00
Standard ID: 0x10D       DLC: 4  Data: 0xEE 0x02 0x00 0x00
Standard ID: 0x02F       DLC: 8  Data: 0x0A 0x28 0x69 0x20 0x00 0x20 0xFF 0x3F
Standard ID: 0x10D       DLC: 4  Data: 0xE5 0x02 0x00 0x00
Standard ID: 0x42D       DLC: 8  Data: 0xFF 0x04 0x12 0x0D 0x00 0x00 0xFF 0xFF
Standard ID: 0x137       DLC: 8  Data: 0xE4 0xFF 0x35 0x02 0x00 0x00 0x00 0x00
Standard ID: 0x02F       DLC: 8  Data: 0x07 0x24 0x69 0x20 0x00 0x20 0xFF 0x3F
Standard ID: 0x10D       DLC: 4  Data: 0xF2 0x02 0x00 0x00
Standard ID: 0x419       DLC: 8  Data: 0xFE 0xFE 0xC4 0x00 0xC0 0xC2 0x00 0x00
Standard ID: 0x10D       DLC: 4  Data: 0xF2 0x02 0x00 0x00
Standard ID: 0x1AB       DLC: 8  Data: 0x20 0x37 0x01 0x00 0x00 0x78 0x2A 0x64
Standard ID: 0x10D       DLC: 4  Data: 0xF5 0x02 0x00 0x00
Standard ID: 0x1AB       DLC: 8  Data: 0x28 0x07 0x01 0x00 0x00 0x06 0x70 0x70
Standard ID: 0x10D       DLC: 4  Data: 0xEE 0x02 0x00 0x00
Standard ID: 0x404       DLC: 8  Data: 0x00 0x00 0x00 0x00 0x00 0x00 0x00 0x00
Standard ID: 0x137       DLC: 8  Data: 0xE4 0xFF 0x35 0x02 0x00 0x00 0x00 0x00
Standard ID: 0x02F       DLC: 8  Data: 0x96 0x22 0x69 0x20 0x00 0x20 0xFF 0x3F
Standard ID: 0x10D       DLC: 4  Data: 0xEC 0x02 0x00 0x00
Standard ID: 0x02F       DLC: 8  Data: 0x0A 0x28 0x69 0x20 0x00 0x20 0xFF 0x3F
Standard ID: 0x10D       DLC: 4  Data: 0xED 0x02 0x00 0x00
Standard ID: 0x351       DLC: 8  Data: 0x10 0x80 0xFC 0x0F 0x00 0x00 0x11 0x00
Standard ID: 0x424       DLC: 8  Data: 0x00 0x00 0x00 0x00 0x00 0x00 0x00 0x00
Standard ID: 0x02F       DLC: 8  Data: 0x07 0x24 0x69 0x20 0x00 0x20 0xFF 0x3F
Standard ID: 0x10D       DLC: 4  Data: 0xF2 0x02 0x00 0x00
Standard ID: 0x42D       DLC: 8  Data: 0xFF 0x04 0xB4 0x00 0x00 0x00 0xFF 0xFF
Standard ID: 0x137       DLC: 8  Data: 0xE4 0xFF 0x35 0x02 0x00 0x00 0x00 0x00
Standard ID: 0x02F       DLC: 8  Data: 0xC8 0x20 0x69 0x20 0x00 0x20 0xFF 0x3F
Standard ID: 0x10D       DLC: 4  Data: 0xF1 0x02 0x00 0x00
Standard ID: 0x419       DLC: 8  Data: 0xFE 0xFE 0xC4 0x00 0xC0 0xC2 0x00 0x00
Standard ID: 0x10D       DLC: 4  Data: 0xF0 0x02 0x00 0x00
Standard ID: 0x339       DLC: 8  Data: 0x33 0x00 0x8B 0x00 0xC8 0x00 0x00 0x00
Standard ID: 0x10D       DLC: 4  Data: 0xF2 0x02 0x00 0x00
Standard ID: 0x02F       DLC: 8  Data: 0x96 0x22 0x69 0x20 0x00 0x20 0xFF 0x3F
Standard ID: 0x10D       DLC: 4  Data: 0xEF 0x02 0x00 0x00
Standard ID: 0x404       DLC: 8  Data: 0x00 0x00 0x00 0x00 0x00 0x00 0x00 0x00
Standard ID: 0x137       DLC: 8  Data: 0xE4 0xFF 0x35 0x02 0x00 0x00 0x00 0x00
Extended ID: 0x0BC80000  DLC: 8  Data: 0x05 0x02 0x00 0x00 0x00 0x00 0x00 0x00
Standard ID: 0x4A6       DLC: 8  Data: 0xFF 0xFF 0xC2 0x30 0x00 0x00 0x00 0x00
Standard ID: 0x02F       DLC: 8  Data: 0x07 0x24 0x69 0x20 0x00 0x20 0xFF 0x3F
Standard ID: 0x10D       DLC: 4  Data: 0xF2 0x02 0x00 0x00
Standard ID: 0x351       DLC: 8  Data: 0x10 0x80 0xFC 0x0F 0x50 0x15 0x11 0x00
Standard ID: 0x10D       DLC: 4  Data: 0xEF 0x02 0x00 0x00
Standard ID: 0x02F       DLC: 8  Data: 0xC8 0x20 0x69 0x20 0x00 0x20 0xFF 0x3F
Standard ID: 0x10D       DLC: 4  Data: 0xF4 0x02 0x00 0x00
Standard ID: 0x42D       DLC: 8  Data: 0xFF 0x04 0xD1 0x03 0x00 0x00 0xFF 0xFF
Standard ID: 0x137       DLC: 8  Data: 0xE4 0xFF 0x35 0x02 0x00 0x00 0x00 0x00
Standard ID: 0x02F       DLC: 8  Data: 0x8C 0x2C 0x68 0x20 0xFF 0x1F 0xFF 0x3F
Standard ID: 0x484       DLC: 8  Data: 0x00 0x10 0x1F 0x0F 0x00 0x00 0x00 0x00
Standard ID: 0x419       DLC: 8  Data: 0xFE 0xFE 0xC4 0x00 0xC0 0xC2 0x00 0x00
Standard ID: 0x10D       DLC: 4  Data: 0xF5 0x02 0x00 0x00
Standard ID: 0x339       DLC: 8  Data: 0x33 0x00 0x8B 0x00 0xC8 0x00 0x00 0x00
Standard ID: 0x10D       DLC: 4  Data: 0xF5 0x02 0x00 0x00
Standard ID: 0x02F       DLC: 8  Data: 0xDC 0x2E 0x69 0x20 0x00 0x20 0xFF 0x3F
Standard ID: 0x10D       DLC: 4  Data: 0xF5 0x02 0x00 0x00
Standard ID: 0x404       DLC: 8  Data: 0x00 0x00 0x00 0x00 0x00 0x00 0x00 0x00
Standard ID: 0x137       DLC: 8  Data: 0xE4 0xFF 0x35 0x02 0x00 0x00 0x00 0x00
Standard ID: 0x02F       DLC: 8  Data: 0x80 0x2A 0x69 0x20 0x00 0x20 0xFF 0x3F
Standard ID: 0x10D       DLC: 4  Data: 0xE8 0x02 0x00 0x00
Standard ID: 0x02F       DLC: 8  Data: 0xC8 0x20 0x69 0x20 0x00 0x20 0xFF 0x3F
Standard ID: 0x10D       DLC: 4  Data: 0xEB 0x02 0x00 0x00
Standard ID: 0x351       DLC: 8  Data: 0x10 0x80 0xFC 0x0F 0x00 0x00 0x11 0x00
Standard ID: 0x10D       DLC: 4  Data: 0xEA 0x02 0x00 0x00
Standard ID: 0x02F       DLC: 8  Data: 0xE5 0x2C 0x68 0x20 0x00 0x20 0xFF 0x3F
Standard ID: 0x10D       DLC: 4  Data: 0xEA 0x02 0x00 0x00
Standard ID: 0x42D       DLC: 8  Data: 0xFF 0x04 0x67 0x06 0x00 0x00 0xFF 0xFF
Standard ID: 0x137       DLC: 8  Data: 0xE4 0xFF 0x35 0x02 0x00 0x00 0x00 0x00
Standard ID: 0x02F       DLC: 8  Data: 0xFE 0x28 0x68 0x20 0x00 0x20 0xFF 0x3F
Standard ID: 0x10D       DLC: 4  Data: 0xF1 0x02 0x00 0x00
Standard ID: 0x419       DLC: 8  Data: 0xFE 0xFE 0xC4 0x00 0xC0 0xC2 0x00 0x00
Standard ID: 0x10D       DLC: 4  Data: 0xF7 0x02 0x00 0x00
Standard ID: 0x341       DLC: 8  Data: 0x00 0x00 0x0D 0xDD 0x14 0x79 0x35 0x7F
Standard ID: 0x10D       DLC: 4  Data: 0xFB 0x02 0x00 0x00
Standard ID: 0x02F       DLC: 8  Data: 0x80 0x2A 0x69 0x20 0x00 0x20 0xFF 0x3F
Standard ID: 0x10D       DLC: 4  Data: 0xF6 0x02 0x00 0x00
Standard ID: 0x404       DLC: 8  Data: 0x00 0x00 0x00 0x00 0x00 0x00 0x00 0x00
Standard ID: 0x137       DLC: 8  Data: 0xE4 0xFF 0x35 0x02 0x00 0x00 0x00 0x00
Standard ID: 0x02F       DLC: 8  Data: 0xCA 0x26 0x69 0x20 0x00 0x20 0xFF 0x3F
Standard ID: 0x10D       DLC: 4  Data: 0xEE 0x02 0x00 0x00
Standard ID: 0x02F       DLC: 8  Data: 0x11 0x2C 0x69 0x20 0x00 0x20 0xFF 0x3F
Standard ID: 0x10D       DLC: 4  Data: 0xEB 0x02 0x00 0x00
Standard ID: 0x351       DLC: 8  Data: 0x10 0x80 0xFC 0x0F 0x50 0x15 0x11 0x00
Standard ID: 0x353       DLC: 8  Data: 0x38 0x08 0x03 0xFC 0xE0 0xE0 0x11 0x00
Standard ID: 0x342       DLC: 8  Data: 0x21 0x0A 0x01 0x00 0x00 0x00 0x00 0x00
Standard ID: 0x10D       DLC: 4  Data: 0xEC 0x02 0x00 0x00
Standard ID: 0x42D       DLC: 8  Data: 0xFF 0x04 0xB6 0x09 0x00 0x00 0xFF 0xFF
Standard ID: 0x137       DLC: 8  Data: 0xE4 0xFF 0x35 0x02 0x00 0x00 0x00 0x00
Extended ID: 0x0BC80000  DLC: 8  Data: 0x8B 0x05 0x00 0x00 0x00 0x00 0x00 0x00
Standard ID: 0x46E       DLC: 8  Data: 0xFF 0xFF 0xFF 0xC0 0xFF 0xFF 0x0F 0x00
Standard ID: 0x419       DLC: 8  Data: 0xFE 0xFE 0xC4 0x00 0xC0 0xC2 0x00 0x00
Standard ID: 0x499       DLC: 8  Data: 0x00 0x00 0x64 0x60 0x56 0x09 0x00 0x00
Standard ID: 0x339       DLC: 8  Data: 0x33 0x00 0x8B 0x00 0xC8 0x00 0x00 0x00
Standard ID: 0x10D       DLC: 4  Data: 0xF4 0x02 0x00 0x00
Standard ID: 0x02F       DLC: 8  Data: 0xCA 0x26 0x69 0x20 0x00 0x20 0xFF 0x3F
Standard ID: 0x10D       DLC: 4  Data: 0xFB 0x02 0x00 0x00
Standard ID: 0x404       DLC: 8  Data: 0x00 0x00 0x00 0x00 0x00 0x00 0x00 0x00
Standard ID: 0x137       DLC: 8  Data: 0xE4 0xFF 0x35 0x02 0x00 0x00 0x00 0x00
Standard ID: 0x02F       DLC: 8  Data: 0x62 0x22 0x68 0x20 0x00 0x20 0xFF 0x3F
Standard ID: 0x10D       DLC: 4  Data: 0xF9 0x02 0x00 0x00
Standard ID: 0x02F       DLC: 8  Data: 0x0A 0x28 0x69 0x20 0x00 0x20 0xFF 0x3F
Standard ID: 0x10D       DLC: 4  Data: 0xF1 0x02 0x00 0x00
Standard ID: 0x351       DLC: 8  Data: 0x10 0x80 0xFC 0x0F 0x00 0x00 0x11 0x00
Standard ID: 0x10D       DLC: 4  Data: 0xF4 0x02 0x00 0x00
Standard ID: 0x02F       DLC: 8  Data: 0x07 0x24 0x69 0x20 0x00 0x20 0xFF 0x3F
Standard ID: 0x10D       DLC: 4  Data: 0xF7 0x02 0x00 0x00
Standard ID: 0x42D       DLC: 8  Data: 0xFF 0x04 0x32 0x0C 0x00 0x00 0xFF 0xFF
Standard ID: 0x137       DLC: 8  Data: 0xE4 0xFF 0x35 0x02 0x00 0x00 0x00 0x00
Standard ID: 0x02F       DLC: 8  Data: 0xC8 0x20 0x69 0x20 0x00 0x20 0xFF 0x3F
Standard ID: 0x10D       DLC: 4  Data: 0xF3 0x02 0x00 0x00
Standard ID: 0x419       DLC: 8  Data: 0xFE 0xFE 0xC4 0x00 0xC0 0xC2 0x00 0x00
Standard ID: 0x10D       DLC: 4  Data: 0xE9 0x02 0x00 0x00
Standard ID: 0x1AB       DLC: 8  Data: 0x20 0x51 0x04 0x00 0x00 0x78 0x2A 0x67
Standard ID: 0x10D       DLC: 4  Data: 0xE6 0x02 0x00 0x00
Standard ID: 0x1AB       DLC: 8  Data: 0x28 0xB1 0x04 0x00 0x00 0x06 0xBE 0x90
Standard ID: 0x10D       DLC: 4  Data: 0xEC 0x02 0x00 0x00
Standard ID: 0x404       DLC: 8  Data: 0x00 0x00 0x00 0x00 0x00 0x00 0x00 0x00
Standard ID: 0x137       DLC: 8  Data: 0xE4 0xFF 0x35 0x02 0x00 0x00 0x00 0x00
Standard ID: 0x02F       DLC: 8  Data: 0xDC 0x2E 0x69 0x20 0x00 0x20 0xFF 0x3F
Standard ID: 0x2E0       DLC: 8  Data: 0x6D 0x0E 0x00 0x00 0x00 0x00 0x00 0x00
Standard ID: 0x02F       DLC: 8  Data: 0x07 0x24 0x69 0x20 0x00 0x20 0xFF 0x3F
Standard ID: 0x499       DLC: 8  Data: 0x00 0x00 0x64 0x60 0x16 0x02 0x00 0x00
Standard ID: 0x351       DLC: 8  Data: 0x10 0x80 0xFC 0x0F 0x50 0x15 0x11 0x00
Standard ID: 0x424       DLC: 8  Data: 0x00 0x00 0x00 0x00 0x00 0x00 0x00 0x00
Standard ID: 0x02F       DLC: 8  Data: 0x3C 0x20 0x68 0x20 0x00 0x20 0xFF 0x3F
Standard ID: 0x10D       DLC: 4  Data: 0xF3 0x02 0x00 0x00
Standard ID: 0x42D       DLC: 8  Data: 0xFF 0x04 0x52 0x0F 0x00 0x00 0xFF 0xFF
Standard ID: 0x137       DLC: 8  Data: 0xE4 0xFF 0x35 0x02 0x00 0x00 0x00 0x00
Standard ID: 0x02F       DLC: 8  Data: 0x11 0x2C 0x69 0x20 0x00 0x20 0xFF 0x3F
Standard ID: 0x10D       DLC: 4  Data: 0xFC 0x02 0x00 0x00
Standard ID: 0x419       DLC: 8  Data: 0xFE 0xFE 0xC4 0x00 0xC0 0xC2 0x00 0x00
Standard ID: 0x10D       DLC: 4  Data: 0xED 0x02 0x00 0x00
Standard ID: 0x339       DLC: 8  Data: 0x33 0x00 0x8A 0x00 0xC8 0x00 0x00 0x00
Standard ID: 0x10D       DLC: 4  Data: 0xEB 0x02 0x00 0x00
Standard ID: 0x02F       DLC: 8  Data: 0xDC 0x2E 0x69 0x20 0x00 0x20 0xFF 0x3F
Standard ID: 0x10D       DLC: 4  Data: 0xEF 0x02 0x00 0x00
Standard ID: 0x404       DLC: 8  Data: 0x00 0x00 0x00 0x00 0x00 0x00 0x00 0x00
Standard ID: 0x137       DLC: 8  Data: 0xE4 0xFF 0x35 0x02 0x00 0x00 0x00 0x00
Extended ID: 0x0BC80000  DLC: 8  Data: 0x80 0x08 0x00 0x00 0x00 0x00 0x00 0x00
Standard ID: 0x4A6       DLC: 8  Data: 0xFF 0xFF 0xC2 0x30 0x00 0x00 0x00 0x00
Standard ID: 0x02F       DLC: 8  Data: 0xC8 0x20 0x69 0x20 0x00 0x20 0xFF 0x3F
Standard ID: 0x10D       DLC: 4  Data: 0xF6 0x02 0x00 0x00
Standard ID: 0x351       DLC: 8  Data: 0x10 0x80 0xFC 0x0F 0x00 0x00 0x11 0x00
Standard ID: 0x10D       DLC: 4  Data: 0xF3 0x02 0x00 0x00
Standard ID: 0x02F       DLC: 8  Data: 0x11 0x2C 0x69 0x20 0x00 0x20 0xFF 0x3F
Standard ID: 0x10D       DLC: 4  Data: 0xF5 0x02 0x00 0x00
Standard ID: 0x42D       DLC: 8  Data: 0xFF 0x04 0x17 0x02 0x00 0x00 0xFF 0xFF
Standard ID: 0x137       DLC: 8  Data: 0xE4 0xFF 0x35 0x02 0x00 0x00 0x00 0x00
Standard ID: 0x02F       DLC: 8  Data: 0x0A 0x28 0x69 0x20 0x00 0x20 0xFF 0x3F
Standard ID: 0x484       DLC: 8  Data: 0x00 0x10 0x1F 0x0F 0x00 0x00 0x00 0x00
Standard ID: 0x419       DLC: 8  Data: 0xFE 0xFE 0xC4 0x00 0xC0 0xC2 0x00 0x00
Standard ID: 0x499       DLC: 8  Data: 0x00 0x00 0x64 0x60 0xA4 0x0B 0x00 0x00
Standard ID: 0x339       DLC: 8  Data: 0x33 0x00 0x8A 0x00 0xC8 0x00 0x00 0x00
Standard ID: 0x10D       DLC: 4  Data: 0xF6 0x02 0x00 0x00
Standard ID: 0x341       DLC: 8  Data: 0x00 0x00 0x0D 0xF2 0x14 0x79 0x00 0x7F
Standard ID: 0x10D       DLC: 4  Data: 0xF4 0x02 0x00 0x00
Standard ID: 0x404       DLC: 8  Data: 0x00 0x00 0x00 0x00 0x00 0x00 0x00 0x00
Standard ID: 0x137       DLC: 8  Data: 0xE4 0xFF 0x35 0x02 0x00 0x00 0x00 0x00
Standard ID: 0x02F       DLC: 8  Data: 0x57 0x26 0x68 0x20 0xFF 0x1F 0xFF 0x3F
Standard ID: 0x10D       DLC: 4  Data: 0xFD 0x02 0x00 0x00
Standard ID: 0x02F       DLC: 8  Data: 0x11 0x2C 0x69 0x20 0x00 0x20 0xFF 0x3F
Standard ID: 0x10D       DLC: 4  Data: 0x00 0x03 0x00 0x00
Standard ID: 0x351       DLC: 8  Data: 0x10 0x80 0xFC 0x0F 0x50 0x15 0x11 0x00
Standard ID: 0x10D       DLC: 4  Data: 0xF7 0x02 0x00 0x00
Standard ID: 0x02F       DLC: 8  Data: 0x0A 0x28 0x69 0x20 0x00 0x20 0xFF 0x3F
Standard ID: 0x10D       DLC: 4  Data: 0xF4 0x02 0x00 0x00
Standard ID: 0x42D       DLC: 8  Data: 0xFF 0x04 0xE4 0x05 0x00 0x00 0xFF 0xFF
Standard ID: 0x137       DLC: 8  Data: 0xE4 0xFF 0x35 0x02 0x00 0x00 0x00 0x00
Standard ID: 0x02F       DLC: 8  Data: 0x07 0x24 0x69 0x20 0x00 0x20 0xFF 0x3F
Standard ID: 0x10D       DLC: 4  Data: 0xFB 0x02 0x00 0x00
Standard ID: 0x419       DLC: 8  Data: 0xFE 0xFE 0xC4 0x00 0xC0 0xC2 0x00 0x00
Standard ID: 0x10D       DLC: 4  Data: 0xFE 0x02 0x00 0x00
Standard ID: 0x339       DLC: 8  Data: 0x33 0x00 0x8A 0x00 0xC8 0x00 0x00 0x00
Standard ID: 0x10D       DLC: 4  Data: 0xFF 0x02 0x00 0x00
Standard ID: 0x02F       DLC: 8  Data: 0x57 0x26 0x68 0x20 0xFF 0x1F 0xFF 0x3F
Standard ID: 0x10D       DLC: 4  Data: 0xFD 0x02 0x00 0x00
Standard ID: 0x404       DLC: 8  Data: 0x00 0x00 0x00 0x00 0x00 0x00 0x00 0x00
Standard ID: 0x137       DLC: 8  Data: 0xE4 0xFF 0x35 0x02 0x00 0x00 0x00 0x00
Standard ID: 0x02F       DLC: 8  Data: 0x62 0x22 0x68 0x20 0x00 0x20 0xFF 0x3F
Standard ID: 0x10D       DLC: 4  Data: 0xFB 0x02 0x00 0x00
Standard ID: 0x02F       DLC: 8  Data: 0x0A 0x28 0x69 0x20 0x00 0x20 0xFF 0x3F
Standard ID: 0x10D       DLC: 4  Data: 0xF9 0x02 0x00 0x00
Standard ID: 0x351       DLC: 8  Data: 0x10 0x80 0xFC 0x0F 0x00 0x00 0x11 0x00
Standard ID: 0x10D       DLC: 4  Data: 0xFA 0x02 0x00 0x00
Standard ID: 0x342       DLC: 8  Data: 0x4F 0x0D 0x01 0x00 0x00 0x00 0x00 0x00
Standard ID: 0x10D       DLC: 4  Data: 0xF8 0x02 0x00 0x00
Standard ID: 0x42D       DLC: 8  Data: 0xFF 0x04 0x96 0x08 0x00 0x00 0xFF 0xFF
Standard ID: 0x137       DLC: 8  Data: 0xE4 0xFF 0x35 0x02 0x00 0x00 0x00 0x00
Extended ID: 0x0BC80000  DLC: 8  Data: 0x80 0x0B 0x00 0x00 0x00 0x00 0x00 0x00
Standard ID: 0x350       DLC: 8  Data: 0x01 0xB6 0x74 0x02 0x00 0x00 0x00 0x00
Standard ID: 0x419       DLC: 8  Data: 0xFE 0xFE 0xC4 0x00 0xC0 0xC2 0x00 0x00
Standard ID: 0x499       DLC: 8  Data: 0x00 0x00 0x64 0x60 0x41 0x07 0x00 0x00
Standard ID: 0x339       DLC: 8  Data: 0x33 0x00 0x8A 0x00 0xC8 0x00 0x00 0x00
Standard ID: 0x10D       DLC: 4  Data: 0xFA 0x02 0x00 0x00
Standard ID: 0x02F       DLC: 8  Data: 0x0B 0x22 0x68 0x20 0xFF 0x1F 0xFF 0x3F
Standard ID: 0x10D       DLC: 4  Data: 0xF0 0x02 0x00 0x00
Standard ID: 0x404       DLC: 8  Data: 0x00 0x00 0x00 0x00 0x00 0x00 0x00 0x00
Standard ID: 0x137       DLC: 8  Data: 0xE4 0xFF 0x35 0x02 0x00 0x00 0x00 0x00
Standard ID: 0x02F       DLC: 8  Data: 0xDC 0x2E 0x69 0x20 0x00 0x20 0xFF 0x3F
Standard ID: 0x10D       DLC: 4  Data: 0xF7 0x02 0x00 0x00
Standard ID: 0x02F       DLC: 8  Data: 0x07 0x24 0x69 0x20 0x00 0x20 0xFF 0x3F
Standard ID: 0x10D       DLC: 4  Data: 0xFC 0x02 0x00 0x00
Standard ID: 0x351       DLC: 8  Data: 0x10 0x80 0xFC 0x0F 0x50 0x15 0x11 0x00
Standard ID: 0x10D       DLC: 4  Data: 0xFF 0x02 0x00 0x00
Standard ID: 0x02F       DLC: 8  Data: 0xC8 0x20 0x69 0x20 0x00 0x20 0xFF 0x3F
Standard ID: 0x10D       DLC: 4  Data: 0xF3 0x02 0x00 0x00
Standard ID: 0x42D       DLC: 8  Data: 0xFF 0x04 0x3B 0x0B 0x00 0x00 0xFF 0xFF
Standard ID: 0x137       DLC: 8  Data: 0xE4 0xFF 0x35 0x02 0x00 0x00 0x00 0x00
Standard ID: 0x02F       DLC: 8  Data: 0x11 0x2C 0x69 0x20 0x00 0x20 0xFF 0x3F
Standard ID: 0x10D       DLC: 4  Data: 0xF3 0x02 0x00 0x00
Standard ID: 0x419       DLC: 8  Data: 0xFE 0xFE 0xC4 0x00 0xC0 0xC2 0x00 0x00
Standard ID: 0x10D       DLC: 4  Data: 0xF9 0x02 0x00 0x00
Standard ID: 0x1AB       DLC: 8  Data: 0x20 0x23 0x07 0x00 0x00 0x78 0x2A 0x6A
Standard ID: 0x10D       DLC: 4  Data: 0xFA 0x02 0x00 0x00
Standard ID: 0x1AB       DLC: 8  Data: 0x28 0xBB 0x07 0x00 0x00 0x06 0xCE 0x30
Standard ID: 0x10D       DLC: 4  Data: 0xFA 0x02 0x00 0x00
Standard ID: 0x404       DLC: 8  Data: 0x00 0x00 0x00 0x00 0x00 0x00 0x00 0x00
Standard ID: 0x137       DLC: 8  Data: 0xE4 0xFF 0x35 0x02 0x00 0x00 0x00 0x00
Standard ID: 0x02F       DLC: 8  Data: 0x74 0x2A 0x68 0x20 0x00 0x20 0xFF 0x3F
Standard ID: 0x10D       DLC: 4  Data: 0xFA 0x02 0x00 0x00
Standard ID: 0x02F       DLC: 8  Data: 0xC8 0x20 0x69 0x20 0x00 0x20 0xFF 0x3F
Standard ID: 0x10D       DLC: 4  Data: 0xFC 0x02 0x00 0x00
Standard ID: 0x351       DLC: 8  Data: 0x10 0x80 0xFC 0x0F 0x00 0x00 0x11 0x00
Standard ID: 0x424       DLC: 8  Data: 0x00 0x00 0x00 0x00 0x00 0x00 0x00 0x00
Standard ID: 0x02F       DLC: 8  Data: 0x11 0x2C 0x69 0x20 0x00 0x20 0xFF 0x3F
Standard ID: 0x10D       DLC: 4  Data: 0xFA 0x02 0x00 0x00
Standard ID: 0x42D       DLC: 8  Data: 0xFF 0x04 0x91 0x0E 0x00 0x00 0xFF 0xFF
Standard ID: 0x137       DLC: 8  Data: 0xE4 0xFF 0x35 0x02 0x00 0x00 0x00 0x00
Standard ID: 0x02F       DLC: 8  Data: 0x0A 0x28 0x69 0x20 0x00 0x20 0xFF 0x3F
Standard ID: 0x10D       DLC: 4  Data: 0xF7 0x02 0x00 0x00
Standard ID: 0x419       DLC: 8  Data: 0xFE 0xFE 0xC4 0x00 0xC0 0xC2 0x00 0x00
Standard ID: 0x10D       DLC: 4  Data: 0xFB 0x02 0x00 0x00
Standard ID: 0x339       DLC: 8  Data: 0x33 0x00 0x8A 0x00 0xC8 0x00 0x00 0x00
Standard ID: 0x10D       DLC: 4  Data: 0xFE 0x02 0x00 0x00
Standard ID: 0x02F       DLC: 8  Data: 0x80 0x2A 0x69 0x20 0x00 0x20 0xFF 0x3F
Standard ID: 0x10D       DLC: 4  Data: 0x00 0x03 0x00 0x00
Standard ID: 0x404       DLC: 8  Data: 0x00 0x00 0x00 0x00 0x00 0x00 0x00 0x00
Standard ID: 0x137       DLC: 8  Data: 0xE4 0xFF 0x35 0x02 0x00 0x00 0x00 0x00
Extended ID: 0x0BC80000  DLC: 8  Data: 0xDA 0x0E 0x00 0x00 0x00 0x00 0x00 0x00
Standard ID: 0x4A6       DLC: 8  Data: 0xFF 0xFF 0xC2 0x30 0x00 0x00 0x00 0x00
Standard ID: 0x02F       DLC: 8  Data: 0xE5 0x2C 0x68 0x20 0x00 0x20 0xFF 0x3F
Standard ID: 0x10D       DLC: 4  Data: 0xFB 0x02 0x00 0x00
Standard ID: 0x351       DLC: 8  Data: 0x10 0x80 0xFC 0x0F 0x50 0x15 0x11 0x00
Standard ID: 0x10D       DLC: 4  Data: 0xFD 0x02 0x00 0x00
Standard ID: 0x02F       DLC: 8  Data: 0x97 0x28 0x68 0x20 0xFF 0x1F 0xFF 0x3F
Standard ID: 0x10D       DLC: 4  Data: 0xFB 0x02 0x00 0x00
Standard ID: 0x42D       DLC: 8  Data: 0xFF 0x04 0x72 0x01 0x00 0x00 0xFF 0xFF
Standard ID: 0x137       DLC: 8  Data: 0xE4 0xFF 0x35 0x02 0x00 0x00 0x00 0x00
Standard ID: 0x02F       DLC: 8  Data: 0x07 0x24 0x69 0x20 0x00 0x20 0xFF 0x3F
Standard ID: 0x484       DLC: 8  Data: 0x00 0x10 0x1F 0x0F 0x00 0x00 0x00 0x00
Standard ID: 0x419       DLC: 8  Data: 0xFE 0xFE 0xC4 0x00 0xC0 0xC2 0x00 0x00
Standard ID: 0x10D       DLC: 4  Data: 0xFC 0x02 0x00 0x00
Standard ID: 0x339       DLC: 8  Data: 0x33 0x00 0x8A 0x00 0xC8 0x00 0x00 0x00
Standard ID: 0x10D       DLC: 4  Data: 0x01 0x03 0x00 0x00
Standard ID: 0x02F       DLC: 8  Data: 0xCA 0x26 0x69 0x20 0x00 0x20 0xFF 0x3F
Standard ID: 0x10D       DLC: 4  Data: 0x02 0x03 0x00 0x00
Standard ID: 0x404       DLC: 8  Data: 0x00 0x00 0x00 0x00 0x00 0x00 0x00 0x00
Standard ID: 0x137       DLC: 8  Data: 0xE4 0xFF 0x35 0x02 0x00 0x00 0x00 0x00
Standard ID: 0x02F       DLC: 8  Data: 0x96 0x22 0x69 0x20 0x00 0x20 0xFF 0x3F
Standard ID: 0x10D       DLC: 4  Data: 0xFB 0x02 0x00 0x00
Standard ID: 0x02F       DLC: 8  Data: 0xFE 0x28 0x68 0x20 0x00 0x20 0xFF 0x3F
Standard ID: 0x10D       DLC: 4  Data: 0xF9 0x02 0x00 0x00
Standard ID: 0x351       DLC: 8  Data: 0x10 0x80 0xFC 0x0F 0x00 0x00 0x11 0x00
Standard ID: 0x10D       DLC: 4  Data: 0xFE 0x02 0x00 0x00
Standard ID: 0x02F       DLC: 8  Data: 0x07 0x24 0x69 0x20 0x00 0x20 0xFF 0x3F
Standard ID: 0x10D       DLC: 4  Data: 0xFF 0x02 0x00 0x00
Standard ID: 0x42D       DLC: 8  Data: 0xFF 0x04 0xC4 0x04 0x00 0x00 0xFF 0xFF
Standard ID: 0x137       DLC: 8  Data: 0xE4 0xFF 0x35 0x02 0x00 0x00 0x00 0x00
Standard ID: 0x02F       DLC: 8  Data: 0x3C 0x20 0x68 0x20 0x00 0x20 0xFF 0x3F
Standard ID: 0x10D       DLC: 4  Data: 0xF9 0x02 0x00 0x00
Standard ID: 0x419       DLC: 8  Data: 0xFE 0xFE 0xC4 0x00 0xC0 0xC2 0x00 0x00
Standard ID: 0x10D       DLC: 4  Data: 0xFA 0x02 0x00 0x00
Standard ID: 0x339       DLC: 8  Data: 0x33 0x00 0x8B 0x00 0xC8 0x00 0x00 0x00
Standard ID: 0x10D       DLC: 4  Data: 0xFE 0x02 0x00 0x00
Standard ID: 0x02F       DLC: 8  Data: 0x96 0x22 0x69 0x20 0x00 0x20 0xFF 0x3F
Standard ID: 0x10D       DLC: 4  Data: 0x00 0x03 0x00 0x00
Standard ID: 0x404       DLC: 8  Data: 0x00 0x00 0x00 0x00 0x00 0x00 0x00 0x00
Standard ID: 0x137       DLC: 8  Data: 0xE4 0xFF 0x35 0x02 0x00 0x00 0x00 0x00
Standard ID: 0x02F       DLC: 8  Data: 0x71 0x2E 0x69 0x20 0x01 0x20 0xFF 0x3F
Standard ID: 0x10D       DLC: 4  Data: 0x02 0x03 0x00 0x00
Standard ID: 0x02F       DLC: 8  Data: 0xF3 0x24 0x68 0x20 0x00 0x20 0xFF 0x3F
Standard ID: 0x10D       DLC: 4  Data: 0x01 0x03 0x00 0x00
Standard ID: 0x351       DLC: 8  Data: 0x10 0x80 0xFC 0x0F 0x50 0x15 0x11 0x00
Standard ID: 0x10D       DLC: 4  Data: 0x00 0x03 0x00 0x00
Standard ID: 0x342       DLC: 8  Data: 0x07 0x00 0x01 0x00 0x00 0x00 0x00 0x00
Standard ID: 0x10D       DLC: 4  Data: 0xFC 0x02 0x00 0x00
Standard ID: 0x42D       DLC: 8  Data: 0xFF 0x04 0xA4 0x07 0x00 0x00 0xFF 0xFF
Standard ID: 0x137       DLC: 8  Data: 0xE4 0xFF 0x35 0x02 0x00 0x00 0x00 0x00
Extended ID: 0x0BC80000  DLC: 8  Data: 0x3A 0x01 0x00 0x00 0x00 0x00 0x00 0x00
Standard ID: 0x350       DLC: 8  Data: 0x01 0xB6 0x44 0x02 0x00 0x00 0x00 0x00
Standard ID: 0x419       DLC: 8  Data: 0xFE 0xFE 0xC4 0x00 0xC0 0xC2 0x00 0x00
Standard ID: 0x10D       DLC: 4  Data: 0xF8 0x02 0x00 0x00
Standard ID: 0x339       DLC: 8  Data: 0x33 0x00 0x8B 0x00 0xC8 0x00 0x00 0x00
Standard ID: 0x10D       DLC: 4  Data: 0xFB 0x02 0x00 0x00
Standard ID: 0x02F       DLC: 8  Data: 0xDC 0x2E 0x69 0x20 0x00 0x20 0xFF 0x3F
Standard ID: 0x10D       DLC: 4  Data: 0x01 0x03 0x00 0x00
Standard ID: 0x404       DLC: 8  Data: 0x00 0x00 0x00 0x00 0x00 0x00 0x00 0x00
Standard ID: 0x137       DLC: 8  Data: 0xE4 0xFF 0x35 0x02 0x00 0x00 0x00 0x00
Standard ID: 0x02F       DLC: 8  Data: 0x80 0x2A 0x69 0x20 0x00 0x20 0xFF 0x3F
Standard ID: 0x10D       DLC: 4  Data: 0xFA 0x02 0x00 0x00
Standard ID: 0x02F       DLC: 8  Data: 0xC8 0x20 0x69 0x20 0x00 0x20 0xFF 0x3F
Standard ID: 0x10D       DLC: 4  Data: 0xF9 0x02 0x00 0x00
Standard ID: 0x351       DLC: 8  Data: 0x10 0x80 0xFC 0x0F 0x00 0x00 0x11 0x00
Standard ID: 0x10D       DLC: 4  Data: 0xF7 0x02 0x00 0x00
Standard ID: 0x02F       DLC: 8  Data: 0x11 0x2C 0x69 0x20 0x00 0x20 0xFF 0x3F
Standard ID: 0x10D       DLC: 4  Data: 0xF9 0x02 0x00 0x00
Standard ID: 0x42D       DLC: 8  Data: 0xFF 0x04 0x35 0x0A 0x00 0x00 0xFF 0xFF
Standard ID: 0x137       DLC: 8  Data: 0xE4 0xFF 0x35 0x02 0x00 0x00 0x00 0x00
Standard ID: 0x02F       DLC: 8  Data: 0x0A 0x28 0x69 0x20 0x00 0x20 0xFF 0x3F
Standard ID: 0x10D       DLC: 4  Data: 0x02 0x03 0x00 0x00
Standard ID: 0x419       DLC: 8  Data: 0xFE 0xFE 0xC4 0x00 0xC0 0xC2 0x00 0x00
Standard ID: 0x10D       DLC: 4  Data: 0xFF 0x02 0x00 0x00
Standard ID: 0x339       DLC: 8  Data: 0x33 0x00 0x8B 0x00 0xC8 0x00 0x00 0x00
Standard ID: 0x10D       DLC: 4  Data: 0xFD 0x02 0x00 0x00
Standard ID: 0x1AB       DLC: 8  Data: 0x28 0x49 0x0A 0x00 0x00 0x05 0x24 0x68
Standard ID: 0x10D       DLC: 4  Data: 0x02 0x03 0x00 0x00
Standard ID: 0x404       DLC: 8  Data: 0x00 0x00 0x00 0x00 0x00 0x00 0x00 0x00
Standard ID: 0x137       DLC: 8  Data: 0xE4 0xFF 0x35 0x02 0x00 0x00 0x00 0x00
Standard ID: 0x341       DLC: 8  Data: 0x00 0x00 0x0D 0x62 0x14 0x79 0x35 0x7F
Standard ID: 0x10D       DLC: 4  Data: 0x0A 0x03 0x00 0x00
Standard ID: 0x02F       DLC: 8  Data: 0x11 0x2C 0x69 0x20 0x00 0x20 0xFF 0x3F
Standard ID: 0x499       DLC: 8  Data: 0x00 0x00 0x64 0x60 0x4A 0x0E 0x00 0x00
Standard ID: 0x351       DLC: 8  Data: 0x10 0x80 0xFC 0x0F 0x50 0x15 0x11 0x00
Standard ID: 0x424       DLC: 8  Data: 0x00 0x00 0x00 0x00 0x00 0x00 0x00 0x00
Standard ID: 0x02F       DLC: 8  Data: 0x0A 0x28 0x69 0x20 0x00 0x20 0xFF 0x3F
Standard ID: 0x10D       DLC: 4  Data: 0x01 0x03 0x00 0x00
Standard ID: 0x42D       DLC: 8  Data: 0xFF 0x04 0x12 0x0D 0x00 0x00 0xFF 0xFF
